 frequency  @m.xm1.msky130_fd_pr__nfet_g5v0d10v5[cdd] @m.xm1.msky130_fd_pr__nfet_g5v0d10v5[cgb] @m.xm1.msky130_fd_pr__nfet_g5v0d10v5[cgd] @m.xm1.msky130_fd_pr__nfet_g5v0d10v5[cgdo] @m.xm1.msky130_fd_pr__nfet_g5v0d10v5[cgg] @m.xm1.msky130_fd_pr__nfet_g5v0d10v5[cgs] @m.xm1.msky130_fd_pr__nfet_g5v0d10v5[cgso] @m.xm1.msky130_fd_pr__nfet_g5v0d10v5[css] @m.xm1.msky130_fd_pr__nfet_g5v0d10v5[gds] @m.xm1.msky130_fd_pr__nfet_g5v0d10v5[gm] @m.xm1.msky130_fd_pr__nfet_g5v0d10v5[gmbs] @m.xm1.msky130_fd_pr__nfet_g5v0d10v5[id] @m.xm1.msky130_fd_pr__nfet_g5v0d10v5[l] @m.xm1.msky130_fd_pr__nfet_g5v0d10v5[vds] @m.xm1.msky130_fd_pr__nfet_g5v0d10v5[vdsat] @m.xm1.msky130_fd_pr__nfet_g5v0d10v5[vgs] @m.xm1.msky130_fd_pr__nfet_g5v0d10v5[vth] frequency 
 1.000e+00  1.902e-16 -2.253e-15 -1.653e-16  1.574e-15  2.332e-15  8.658e-17  1.574e-15 -2.352e-17  2.378e-11  0.000e+00  0.000e+00  0.000e+00  5.000e-07  9.821e-42  4.188e-02  4.910e-42  8.356e-01  1.000e+00 
 1.000e+00  6.352e-17 -1.898e-15 -5.751e-17  1.574e-15  1.927e-15  2.835e-17  1.574e-15 -8.962e-18  1.503e-12  0.000e+00  0.000e+00  0.000e+00  5.000e-07  0.000e+00  4.358e-02  2.323e-14  9.295e-01  1.000e+00 
 1.000e+00  2.463e-17 -1.668e-15 -2.289e-17  1.574e-15  1.681e-15  1.040e-17  1.574e-15 -3.470e-18  1.593e-13  3.065e-41  8.058e-42  1.558e-42  5.000e-07  6.311e-30  4.471e-02  4.643e-14  1.007e+00  1.000e+00 
 1.000e+00  1.061e-17 -1.506e-15 -1.005e-17  1.574e-15  1.511e-15  4.234e-18  1.574e-15 -1.469e-18  2.336e-14  1.501e-39  3.334e-40  0.000e+00  5.000e-07 -1.262e-29  4.555e-02  6.963e-14  1.074e+00  1.000e+00 
 1.000e+00  2.288e-18 -2.261e-15 -1.732e-18  1.554e-15  2.313e-15 -5.071e-17  1.574e-15  5.695e-17  2.676e-12  1.521e-11  6.619e-12  8.537e-13  5.000e-07  1.000e-01  4.188e-02 -4.951e-14  8.354e-01  1.000e+00 
 1.000e+00  7.175e-19 -1.900e-15 -5.604e-19  1.554e-15  1.920e-15 -1.995e-17  1.574e-15  1.821e-17  1.803e-13  1.050e-12  3.377e-13  5.547e-14  5.000e-07  1.000e-01  4.358e-02  2.002e-14  9.294e-01  1.000e+00 
 1.000e+00  2.719e-19 -1.669e-15 -2.158e-19  1.554e-15  1.678e-15 -8.815e-18  1.574e-15  7.057e-18  2.011e-14  1.179e-13  3.063e-14  5.996e-15  5.000e-07  1.000e-01  4.471e-02  4.608e-14  1.007e+00  1.000e+00 
 1.000e+00  1.157e-19 -1.506e-15 -9.267e-20  1.554e-15  1.510e-15 -4.193e-18  1.574e-15  3.062e-18  3.084e-15  1.806e-14  3.974e-15  8.938e-16  5.000e-07  1.000e-01  4.555e-02  6.958e-14  1.074e+00  1.000e+00 
 1.000e+00  3.879e-19 -2.261e-15 -2.726e-19  1.534e-15  2.312e-15 -5.127e-17  1.574e-15  5.724e-17  1.739e-12  1.884e-11  8.173e-12  1.057e-12  5.000e-07  2.000e-01  4.188e-02 -6.133e-14  8.353e-01  1.000e+00 
 1.000e+00  1.194e-19 -1.900e-15 -8.180e-20  1.534e-15  1.920e-15 -2.015e-17  1.574e-15  1.831e-17  1.195e-13  1.313e-12  4.206e-13  6.934e-14  5.000e-07  2.000e-01  4.358e-02  1.921e-14  9.292e-01  1.000e+00 
 1.000e+00  4.411e-20 -1.669e-15 -2.866e-20  1.534e-15  1.678e-15 -8.896e-18  1.574e-15  7.098e-18  1.362e-14  1.487e-13  3.846e-14  7.560e-15  5.000e-07  2.000e-01  4.471e-02  4.599e-14  1.007e+00  1.000e+00 
 1.000e+00  1.827e-20 -1.506e-15 -1.105e-20  1.534e-15  1.510e-15 -4.230e-18  1.574e-15  3.080e-18  2.132e-15  2.297e-14  5.030e-15  1.136e-15  5.000e-07  2.000e-01  4.555e-02  6.957e-14  1.073e+00  1.000e+00 
 1.000e+00  1.094e-19 -2.261e-15 -6.347e-20  1.517e-15  2.312e-15 -5.130e-17  1.574e-15  5.729e-17  1.590e-12  2.178e-11  9.424e-12  1.222e-12  5.000e-07  3.000e-01  4.188e-02 -7.089e-14  8.352e-01  1.000e+00 
 1.000e+00  3.116e-20 -1.900e-15 -1.279e-20  1.517e-15  1.920e-15 -2.017e-17  1.574e-15  1.833e-17  1.106e-13  1.529e-12  4.883e-13  8.074e-14  5.000e-07  3.000e-01  4.358e-02  1.855e-14  9.291e-01  1.000e+00 
 1.000e+00  1.047e-20 -1.669e-15 -1.621e-21  1.517e-15  1.678e-15 -8.907e-18  1.574e-15  7.109e-18  1.274e-14  1.744e-13  4.495e-14  8.867e-15  5.000e-07  3.000e-01  4.471e-02  4.592e-14  1.006e+00  1.000e+00 
 1.000e+00  3.858e-21 -1.506e-15  7.575e-22  1.517e-15  1.510e-15 -4.236e-18  1.574e-15  3.086e-18  2.014e-15  2.712e-14  5.917e-15  1.342e-15  5.000e-07  3.000e-01  4.555e-02  6.955e-14  1.073e+00  1.000e+00 
 1.000e+00  3.091e-20 -2.261e-15 -5.137e-21  1.503e-15  2.312e-15 -5.132e-17  1.574e-15  5.734e-17  1.541e-12  2.456e-11  1.061e-11  1.378e-12  5.000e-07  4.000e-01  4.188e-02 -7.995e-14  8.351e-01  1.000e+00 
 1.000e+00  6.244e-21 -1.900e-15  6.525e-21  1.503e-15  1.920e-15 -2.019e-17  1.574e-15  1.835e-17  1.081e-13  1.735e-12  5.528e-13  9.165e-14  5.000e-07  4.000e-01  4.358e-02  1.792e-14  9.289e-01  1.000e+00 
 1.000e+00  9.476e-22 -1.669e-15  5.960e-21  1.503e-15  1.678e-15 -8.917e-18  1.574e-15  7.120e-18  1.253e-14  1.992e-13  5.119e-14  1.013e-14  5.000e-07  4.000e-01  4.471e-02  4.585e-14  1.006e+00  1.000e+00 
 1.000e+00 -2.211e-22 -1.506e-15  4.073e-21  1.503e-15  1.510e-15 -4.242e-18  1.574e-15  3.092e-18  1.994e-15  3.117e-14  6.777e-15  1.542e-15  5.000e-07  4.000e-01  4.555e-02  6.954e-14  1.073e+00  1.000e+00 
 1.000e+00  6.710e-22 -2.261e-15  1.724e-20  1.492e-15  2.312e-15 -5.135e-17  1.574e-15  5.738e-17  1.522e-12  2.729e-11  1.176e-11  1.532e-12  5.000e-07  5.000e-01  4.188e-02 -8.883e-14  8.350e-01  1.000e+00 
 1.000e+00 -3.385e-21 -1.900e-15  1.396e-20  1.492e-15  1.920e-15 -2.020e-17  1.574e-15  1.838e-17  1.073e-13  1.939e-12  6.163e-13  1.024e-13  5.000e-07  5.000e-01  4.358e-02  1.729e-14  9.288e-01  1.000e+00 
 1.000e+00 -2.736e-21 -1.669e-15  8.884e-21  1.492e-15  1.678e-15 -8.928e-18  1.574e-15  7.130e-18  1.251e-14  2.238e-13  5.736e-14  1.138e-14  5.000e-07  5.000e-01  4.471e-02  4.577e-14  1.006e+00  1.000e+00 
 1.000e+00 -1.802e-21 -1.506e-15  5.356e-21  1.492e-15  1.510e-15 -4.249e-18  1.574e-15  3.098e-18  2.000e-15  3.520e-14  7.631e-15  1.742e-15  5.000e-07  5.000e-01  4.555e-02  6.953e-14  1.073e+00  1.000e+00 
 1.000e+00 -1.340e-20 -2.261e-15  2.762e-20  1.483e-15  2.312e-15 -5.138e-17  1.574e-15  5.744e-17  1.516e-12  3.000e-11  1.290e-11  1.683e-12  5.000e-07  6.000e-01  4.188e-02 -9.764e-14  8.348e-01  1.000e+00 
 1.000e+00 -7.874e-21 -1.900e-15  1.742e-20  1.483e-15  1.920e-15 -2.022e-17  1.574e-15  1.840e-17  1.074e-13  2.142e-12  6.795e-13  1.131e-13  5.000e-07  6.000e-01  4.358e-02  1.667e-14  9.286e-01  1.000e+00 
 1.000e+00 -4.456e-21 -1.669e-15  1.025e-20  1.483e-15  1.678e-15 -8.939e-18  1.574e-15  7.141e-18  1.257e-14  2.485e-13  6.353e-14  1.263e-14  5.000e-07  6.000e-01  4.471e-02  4.570e-14  1.006e+00  1.000e+00 
 1.000e+00 -2.541e-21 -1.506e-15  5.958e-21  1.483e-15  1.510e-15 -4.256e-18  1.574e-15  3.104e-18  2.017e-15  3.926e-14  8.489e-15  1.943e-15  5.000e-07  6.000e-01  4.555e-02  6.952e-14  1.073e+00  1.000e+00 
 1.000e+00 -2.082e-20 -2.261e-15  3.309e-20  1.476e-15  2.312e-15 -5.142e-17  1.574e-15  5.749e-17  1.518e-12  3.270e-11  1.404e-11  1.835e-12  5.000e-07  7.000e-01  4.188e-02 -1.064e-13  8.347e-01  1.000e+00 
 1.000e+00 -1.025e-20 -1.900e-15  1.925e-20  1.476e-15  1.920e-15 -2.024e-17  1.574e-15  1.842e-17  1.079e-13  2.346e-12  7.427e-13  1.239e-13  5.000e-07  7.000e-01  4.358e-02  1.605e-14  9.285e-01  1.000e+00 
 1.000e+00 -5.368e-21 -1.669e-15  1.098e-20  1.476e-15  1.678e-15 -8.951e-18  1.574e-15  7.153e-18  1.267e-14  2.733e-13  6.973e-14  1.389e-14  5.000e-07  7.000e-01  4.471e-02  4.563e-14  1.006e+00  1.000e+00 
 1.000e+00 -2.935e-21 -1.506e-15  6.281e-21  1.476e-15  1.510e-15 -4.263e-18  1.574e-15  3.110e-18  2.040e-15  4.336e-14  9.354e-15  2.145e-15  5.000e-07  7.000e-01  4.555e-02  6.951e-14  1.072e+00  1.000e+00 
 1.000e+00 -2.511e-20 -2.261e-15  3.625e-20  1.470e-15  2.312e-15 -5.146e-17  1.574e-15  5.754e-17  1.523e-12  3.541e-11  1.519e-11  1.987e-12  5.000e-07  8.000e-01  4.188e-02 -1.152e-13  8.346e-01  1.000e+00 
 1.000e+00 -1.163e-20 -1.900e-15  2.032e-20  1.470e-15  1.920e-15 -2.027e-17  1.574e-15  1.844e-17  1.087e-13  2.551e-12  8.063e-13  1.347e-13  5.000e-07  8.000e-01  4.358e-02  1.542e-14  9.283e-01  1.000e+00 
 1.000e+00 -5.899e-21 -1.669e-15  1.141e-20  1.470e-15  1.678e-15 -8.964e-18  1.574e-15  7.164e-18  1.280e-14  2.984e-13  7.598e-14  1.517e-14  5.000e-07  8.000e-01  4.471e-02  4.555e-14  1.006e+00  1.000e+00 
 1.000e+00 -3.165e-21 -1.506e-15  6.473e-21  1.470e-15  1.510e-15 -4.270e-18  1.574e-15  3.116e-18  2.066e-15  4.751e-14  1.023e-14  2.351e-15  5.000e-07  8.000e-01  4.555e-02  6.950e-14  1.072e+00  1.000e+00 
 1.000e+00 -2.776e-20 -2.261e-15  3.821e-20  1.465e-15  2.312e-15 -5.150e-17  1.574e-15  5.760e-17  1.531e-12  3.813e-11  1.633e-11  2.140e-12  5.000e-07  9.000e-01  4.188e-02 -1.241e-13  8.345e-01  1.000e+00 
 1.000e+00 -1.248e-20 -1.900e-15  2.098e-20  1.465e-15  1.920e-15 -2.029e-17  1.574e-15  1.847e-17  1.096e-13  2.757e-12  8.702e-13  1.457e-13  5.000e-07  9.000e-01  4.358e-02  1.478e-14  9.282e-01  1.000e+00 
 1.000e+00 -6.231e-21 -1.669e-15  1.168e-20  1.465e-15  1.678e-15 -8.977e-18  1.574e-15  7.176e-18  1.294e-14  3.237e-13  8.228e-14  1.646e-14  5.000e-07  9.000e-01  4.471e-02  4.548e-14  1.005e+00  1.000e+00 
 1.000e+00 -3.310e-21 -1.506e-15  6.597e-21  1.465e-15  1.510e-15 -4.278e-18  1.574e-15  3.122e-18  2.094e-15  5.171e-14  1.111e-14  2.559e-15  5.000e-07  9.000e-01  4.555e-02  6.948e-14  1.072e+00  1.000e+00 
 1.000e+00 -2.950e-20 -2.261e-15  3.950e-20  1.461e-15  2.312e-15 -5.154e-17  1.574e-15  5.765e-17  1.540e-12  4.086e-11  1.748e-11  2.293e-12  5.000e-07  1.000e+00  4.188e-02 -1.330e-13  8.343e-01  1.000e+00 
 1.000e+00 -1.304e-20 -1.900e-15  2.143e-20  1.461e-15  1.920e-15 -2.031e-17  1.574e-15  1.849e-17  1.105e-13  2.966e-12  9.346e-13  1.567e-13  5.000e-07  1.000e+00  4.358e-02  1.415e-14  9.280e-01  1.000e+00 
 1.000e+00 -6.451e-21 -1.669e-15  1.186e-20  1.461e-15  1.678e-15 -8.990e-18  1.574e-15  7.187e-18  1.309e-14  3.493e-13  8.865e-14  1.776e-14  5.000e-07  1.000e+00  4.471e-02  4.540e-14  1.005e+00  1.000e+00 
 1.000e+00 -3.406e-21 -1.506e-15  6.682e-21  1.461e-15  1.510e-15 -4.285e-18  1.574e-15  3.128e-18  2.122e-15  5.597e-14  1.201e-14  2.769e-15  5.000e-07  1.000e+00  4.555e-02  6.947e-14  1.072e+00  1.000e+00 
 1.000e+00 -3.069e-20 -2.261e-15  4.039e-20  1.458e-15  2.312e-15 -5.158e-17  1.574e-15  5.771e-17  1.551e-12  4.362e-11  1.864e-11  2.448e-12  5.000e-07  1.100e+00  4.188e-02 -1.420e-13  8.342e-01  1.000e+00 
 1.000e+00 -1.343e-20 -1.900e-15  2.174e-20  1.458e-15  1.920e-15 -2.033e-17  1.574e-15  1.851e-17  1.116e-13  3.176e-12  9.996e-13  1.678e-13  5.000e-07  1.100e+00  4.358e-02  1.350e-14  9.279e-01  1.000e+00 
 1.000e+00 -6.604e-21 -1.669e-15  1.199e-20  1.458e-15  1.678e-15 -9.003e-18  1.574e-15  7.199e-18  1.324e-14  3.751e-13  9.508e-14  1.907e-14  5.000e-07  1.100e+00  4.471e-02  4.533e-14  1.005e+00  1.000e+00 
 1.000e+00 -3.474e-21 -1.506e-15  6.744e-21  1.458e-15  1.510e-15 -4.293e-18  1.574e-15  3.135e-18  2.151e-15  6.029e-14  1.291e-14  2.983e-15  5.000e-07  1.100e+00  4.555e-02  6.946e-14  1.071e+00  1.000e+00 
 1.000e+00 -3.153e-20 -2.261e-15  4.102e-20  1.454e-15  2.312e-15 -5.163e-17  1.574e-15  5.776e-17  1.562e-12  4.639e-11  1.981e-11  2.603e-12  5.000e-07  1.200e+00  4.188e-02 -1.510e-13  8.341e-01  1.000e+00 
 1.000e+00 -1.371e-20 -1.900e-15  2.196e-20  1.454e-15  1.920e-15 -2.036e-17  1.574e-15  1.854e-17  1.126e-13  3.388e-12  1.065e-12  1.790e-13  5.000e-07  1.200e+00  4.358e-02  1.285e-14  9.277e-01  1.000e+00 
 1.000e+00 -6.715e-21 -1.669e-15  1.209e-20  1.454e-15  1.678e-15 -9.016e-18  1.574e-15  7.211e-18  1.339e-14  4.013e-13  1.016e-13  2.040e-14  5.000e-07  1.200e+00  4.471e-02  4.525e-14  1.005e+00  1.000e+00 
 1.000e+00 -3.524e-21 -1.506e-15  6.792e-21  1.454e-15  1.510e-15 -4.301e-18  1.574e-15  3.141e-18  2.181e-15  6.467e-14  1.383e-14  3.200e-15  5.000e-07  1.200e+00  4.555e-02  6.945e-14  1.071e+00  1.000e+00 
 1.000e+00 -3.215e-20 -2.261e-15  4.149e-20  1.451e-15  2.313e-15 -5.167e-17  1.574e-15  5.782e-17  1.574e-12  4.918e-11  2.098e-11  2.760e-12  5.000e-07  1.300e+00  4.188e-02 -1.601e-13  8.340e-01  1.000e+00 
 1.000e+00 -1.392e-20 -1.900e-15  2.214e-20  1.451e-15  1.920e-15 -2.038e-17  1.574e-15  1.856e-17  1.137e-13  3.602e-12  1.131e-12  1.903e-13  5.000e-07  1.300e+00  4.358e-02  1.220e-14  9.276e-01  1.000e+00 
 1.000e+00 -6.799e-21 -1.669e-15  1.217e-20  1.451e-15  1.678e-15 -9.029e-18  1.574e-15  7.223e-18  1.355e-14  4.278e-13  1.081e-13  2.175e-14  5.000e-07  1.300e+00  4.471e-02  4.517e-14  1.005e+00  1.000e+00 
 1.000e+00 -3.563e-21 -1.506e-15  6.831e-21  1.451e-15  1.510e-15 -4.308e-18  1.574e-15  3.147e-18  2.211e-15  6.910e-14  1.476e-14  3.419e-15  5.000e-07  1.300e+00  4.555e-02  6.943e-14  1.071e+00  1.000e+00 
 1.000e+00 -3.262e-20 -2.261e-15  4.185e-20  1.449e-15  2.313e-15 -5.172e-17  1.574e-15  5.787e-17  1.587e-12  5.200e-11  2.216e-11  2.918e-12  5.000e-07  1.400e+00  4.188e-02 -1.693e-13  8.339e-01  1.000e+00 
 1.000e+00 -1.408e-20 -1.900e-15  2.227e-20  1.449e-15  1.920e-15 -2.040e-17  1.574e-15  1.859e-17  1.149e-13  3.819e-12  1.198e-12  2.017e-13  5.000e-07  1.400e+00  4.358e-02  1.153e-14  9.274e-01  1.000e+00 
 1.000e+00 -6.864e-21 -1.669e-15  1.223e-20  1.449e-15  1.678e-15 -9.042e-18  1.574e-15  7.234e-18  1.371e-14  4.546e-13  1.148e-13  2.311e-14  5.000e-07  1.400e+00  4.471e-02  4.509e-14  1.004e+00  1.000e+00 
 1.000e+00 -3.593e-21 -1.506e-15  6.863e-21  1.449e-15  1.510e-15 -4.316e-18  1.574e-15  3.154e-18  2.240e-15  7.360e-14  1.570e-14  3.642e-15  5.000e-07  1.400e+00  4.555e-02  6.942e-14  1.071e+00  1.000e+00 
 1.000e+00 -3.298e-20 -2.261e-15  4.213e-20  1.447e-15  2.313e-15 -5.176e-17  1.574e-15  5.793e-17  1.599e-12  5.484e-11  2.335e-11  3.078e-12  5.000e-07  1.500e+00  4.188e-02 -1.785e-13  8.337e-01  1.000e+00 
 1.000e+00 -1.420e-20 -1.900e-15  2.238e-20  1.447e-15  1.920e-15 -2.043e-17  1.574e-15  1.861e-17  1.160e-13  4.037e-12  1.265e-12  2.133e-13  5.000e-07  1.500e+00  4.358e-02  1.086e-14  9.273e-01  1.000e+00 
 1.000e+00 -6.916e-21 -1.669e-15  1.228e-20  1.447e-15  1.678e-15 -9.056e-18  1.574e-15  7.246e-18  1.387e-14  4.818e-13  1.215e-13  2.449e-14  5.000e-07  1.500e+00  4.471e-02  4.501e-14  1.004e+00  1.000e+00 
 1.000e+00 -3.618e-21 -1.506e-15  6.891e-21  1.447e-15  1.510e-15 -4.324e-18  1.574e-15  3.160e-18  2.270e-15  7.816e-14  1.665e-14  3.867e-15  5.000e-07  1.500e+00  4.555e-02  6.941e-14  1.071e+00  1.000e+00 
 1.000e+00  4.124e-16 -2.119e-15 -3.583e-16  1.587e-15  2.301e-15  1.763e-16  1.587e-15 -4.160e-17  1.413e-10  0.000e+00  0.000e+00  0.000e+00  5.000e-07  0.000e+00  4.188e-02  1.000e-01  8.356e-01  1.000e+00 
 1.000e+00  1.527e-16 -1.823e-15 -1.382e-16  1.587e-15  1.893e-15  6.844e-17  1.587e-15 -2.055e-17  9.980e-12  0.000e+00  0.000e+00  0.000e+00  5.000e-07  0.000e+00  4.358e-02  1.000e-01  9.295e-01  1.000e+00 
 1.000e+00  6.298e-17 -1.619e-15 -5.854e-17  1.587e-15  1.650e-15  2.794e-17  1.587e-15 -9.045e-18  1.139e-12  0.000e+00  0.000e+00  0.000e+00  5.000e-07  0.000e+00  4.471e-02  1.000e-01  1.007e+00  1.000e+00 
 1.000e+00  2.837e-17 -1.470e-15 -2.688e-17  1.587e-15  1.485e-15  1.218e-17  1.587e-15 -4.066e-18  1.763e-13  0.000e+00  0.000e+00  0.000e+00  5.000e-07  0.000e+00  4.555e-02  1.000e-01  1.074e+00  1.000e+00 
 1.000e+00  5.547e-18 -2.134e-15 -4.198e-18  1.574e-15  2.256e-15 -1.184e-16  1.587e-15  1.314e-16  1.590e-11  9.037e-11  3.753e-11  5.072e-12  5.000e-07  1.000e-01  4.188e-02  1.000e-01  8.354e-01  1.000e+00 
 1.000e+00  1.801e-18 -1.827e-15 -1.407e-18  1.574e-15  1.876e-15 -4.726e-17  1.587e-15  4.456e-17  1.197e-12  6.972e-12  2.161e-12  3.683e-13  5.000e-07  1.000e-01  4.358e-02  1.000e-01  9.294e-01  1.000e+00 
 1.000e+00  7.084e-19 -1.621e-15 -5.629e-19  1.574e-15  1.643e-15 -2.130e-17  1.587e-15  1.793e-17  1.437e-13  8.431e-13  2.123e-13  4.286e-14  5.000e-07  1.000e-01  4.471e-02  1.000e-01  1.007e+00  1.000e+00 
 1.000e+00  3.124e-19 -1.471e-15 -2.504e-19  1.574e-15  1.481e-15 -1.043e-17  1.587e-15  8.091e-18  2.327e-14  1.363e-13  2.920e-14  6.745e-15  5.000e-07  1.000e-01  4.555e-02  1.000e-01  1.074e+00  1.000e+00 
 1.000e+00  9.315e-19 -2.134e-15 -6.508e-19  1.554e-15  2.255e-15 -1.198e-16  1.587e-15  1.321e-16  1.033e-11  1.119e-10  4.633e-11  6.282e-12  5.000e-07  2.000e-01  4.188e-02  1.000e-01  8.353e-01  1.000e+00 
 1.000e+00  2.987e-19 -1.827e-15 -2.049e-19  1.554e-15  1.875e-15 -4.777e-17  1.587e-15  4.481e-17  7.937e-13  8.715e-12  2.691e-12  4.604e-13  5.000e-07  2.000e-01  4.358e-02  1.000e-01  9.292e-01  1.000e+00 
 1.000e+00  1.150e-19 -1.621e-15 -7.530e-20  1.554e-15  1.643e-15 -2.151e-17  1.587e-15  1.804e-17  9.734e-14  1.063e-12  2.665e-13  5.404e-14  5.000e-07  2.000e-01  4.471e-02  1.000e-01  1.007e+00  1.000e+00 
 1.000e+00  4.939e-20 -1.471e-15 -3.016e-20  1.554e-15  1.481e-15 -1.053e-17  1.587e-15  8.141e-18  1.609e-14  1.733e-13  3.694e-14  8.575e-15  5.000e-07  2.000e-01  4.555e-02  1.000e-01  1.073e+00  1.000e+00 
 1.000e+00  2.621e-19 -2.134e-15 -1.481e-19  1.534e-15  2.254e-15 -1.199e-16  1.587e-15  1.322e-16  9.447e-12  1.294e-10  5.342e-11  7.262e-12  5.000e-07  3.000e-01  4.188e-02  1.000e-01  8.352e-01  1.000e+00 
 1.000e+00  7.805e-20 -1.827e-15 -3.228e-20  1.534e-15  1.875e-15 -4.782e-17  1.587e-15  4.486e-17  7.345e-13  1.015e-11  3.124e-12  5.361e-13  5.000e-07  3.000e-01  4.358e-02  1.000e-01  9.291e-01  1.000e+00 
 1.000e+00  2.747e-20 -1.621e-15 -4.973e-21  1.534e-15  1.643e-15 -2.154e-17  1.587e-15  1.807e-17  9.106e-14  1.247e-12  3.115e-13  6.339e-14  5.000e-07  3.000e-01  4.471e-02  1.000e-01  1.006e+00  1.000e+00 
 1.000e+00  1.054e-20 -1.471e-15  1.676e-21  1.534e-15  1.481e-15 -1.055e-17  1.587e-15  8.156e-18  1.520e-14  2.047e-13  4.346e-14  1.013e-14  5.000e-07  3.000e-01  4.555e-02  1.000e-01  1.073e+00  1.000e+00 
 1.000e+00  7.464e-20 -2.134e-15 -8.666e-21  1.517e-15  2.254e-15 -1.199e-16  1.587e-15  1.323e-16  9.156e-12  1.459e-10  6.011e-11  8.189e-12  5.000e-07  4.000e-01  4.188e-02  1.000e-01  8.351e-01  1.000e+00 
 1.000e+00  1.586e-20 -1.827e-15  1.593e-20  1.517e-15  1.875e-15 -4.786e-17  1.587e-15  4.492e-17  7.175e-13  1.152e-11  3.537e-12  6.086e-13  5.000e-07  4.000e-01  4.358e-02  1.000e-01  9.289e-01  1.000e+00 
 1.000e+00  2.730e-21 -1.621e-15  1.473e-20  1.517e-15  1.643e-15 -2.156e-17  1.587e-15  1.809e-17  8.957e-14  1.424e-12  3.547e-13  7.240e-14  5.000e-07  4.000e-01  4.471e-02  1.000e-01  1.006e+00  1.000e+00 
 1.000e+00 -4.555e-22 -1.471e-15  1.061e-20  1.517e-15  1.481e-15 -1.056e-17  1.587e-15  8.171e-18  1.504e-14  2.352e-13  4.976e-14  1.164e-14  5.000e-07  4.000e-01  4.555e-02  1.000e-01  1.073e+00  1.000e+00 
 1.000e+00  2.626e-21 -2.134e-15  4.462e-20  1.503e-15  2.254e-15 -1.200e-16  1.587e-15  1.324e-16  9.043e-12  1.621e-10  6.664e-11  9.098e-12  5.000e-07  5.000e-01  4.188e-02  1.000e-01  8.350e-01  1.000e+00 
 1.000e+00 -8.144e-21 -1.827e-15  3.446e-20  1.503e-15  1.875e-15 -4.790e-17  1.587e-15  4.497e-17  7.127e-13  1.287e-11  3.942e-12  6.800e-13  5.000e-07  5.000e-01  4.358e-02  1.000e-01  9.288e-01  1.000e+00 
 1.000e+00 -6.836e-21 -1.621e-15  2.232e-20  1.503e-15  1.643e-15 -2.159e-17  1.587e-15  1.812e-17  8.944e-14  1.600e-12  3.974e-13  8.135e-14  5.000e-07  5.000e-01  4.471e-02  1.000e-01  1.006e+00  1.000e+00 
 1.000e+00 -4.714e-21 -1.471e-15  1.407e-20  1.503e-15  1.481e-15 -1.058e-17  1.587e-15  8.186e-18  1.509e-14  2.656e-13  5.604e-14  1.314e-14  5.000e-07  5.000e-01  4.555e-02  1.000e-01  1.073e+00  1.000e+00 
 1.000e+00 -3.079e-20 -2.134e-15  6.929e-20  1.492e-15  2.254e-15 -1.201e-16  1.587e-15  1.325e-16  9.009e-12  1.782e-10  7.312e-11  1.000e-11  5.000e-07  6.000e-01  4.188e-02  1.000e-01  8.348e-01  1.000e+00 
 1.000e+00 -1.933e-20 -1.827e-15  4.308e-20  1.492e-15  1.875e-15 -4.795e-17  1.587e-15  4.502e-17  7.133e-13  1.422e-11  4.346e-12  7.513e-13  5.000e-07  6.000e-01  4.358e-02  1.000e-01  9.286e-01  1.000e+00 
 1.000e+00 -1.130e-20 -1.621e-15  2.587e-20  1.492e-15  1.643e-15 -2.162e-17  1.587e-15  1.815e-17  8.988e-14  1.776e-12  4.401e-13  9.031e-14  5.000e-07  6.000e-01  4.471e-02  1.000e-01  1.006e+00  1.000e+00 
