 v-sweep       d0            d1            d2            d3            d4            d5            d6            d7            d8            d9            in            load          v-sweep       vmeas#branch  vmeas1#branch vmeas2#branch vmeas4#branch vmeas5#branch vout          ndata        
 0.000000e+00  0.000000e+00  0.000000e+00  0.000000e+00  0.000000e+00  0.000000e+00  0.000000e+00  0.000000e+00  0.000000e+00  0.000000e+00  0.000000e+00  0.000000e+00  4.583586e-04  0.000000e+00  4.929320e-07  1.228503e-06  2.221887e-09  1.850694e-05 -1.538689e-08  3.044898e-04  0.000000e+00 
 0.000000e+00  1.800000e+00  0.000000e+00  0.000000e+00  0.000000e+00  0.000000e+00  0.000000e+00  0.000000e+00  0.000000e+00  0.000000e+00  0.000000e+00  0.000000e+00  5.230844e-02  0.000000e+00  4.929335e-07  1.228503e-06  2.146940e-09  1.868023e-05  1.089443e-09  5.231934e-02  1.000000e+00 
 0.000000e+00  0.000000e+00  1.800000e+00  0.000000e+00  0.000000e+00  0.000000e+00  0.000000e+00  0.000000e+00  0.000000e+00  0.000000e+00  0.000000e+00  0.000000e+00  9.836687e-02  0.000000e+00  4.929334e-07  1.228503e-06  2.227940e-09  1.872525e-05  3.162030e-10  9.837003e-02  2.000000e+00 
 0.000000e+00  1.800000e+00  1.800000e+00  0.000000e+00  0.000000e+00  0.000000e+00  0.000000e+00  0.000000e+00  0.000000e+00  0.000000e+00  0.000000e+00  0.000000e+00  1.390967e-01  0.000000e+00  4.929334e-07  1.228503e-06  2.227859e-09  1.872604e-05  4.739550e-11  1.390971e-01  3.000000e+00 
 0.000000e+00  0.000000e+00  0.000000e+00  1.800000e+00  0.000000e+00  0.000000e+00  0.000000e+00  0.000000e+00  0.000000e+00  0.000000e+00  0.000000e+00  0.000000e+00  1.760728e-01  0.000000e+00  4.929334e-07  1.228503e-06  2.165051e-09  1.874233e-05  9.617159e-12  1.760729e-01  4.000000e+00 
 0.000000e+00  1.800000e+00  0.000000e+00  1.800000e+00  0.000000e+00  0.000000e+00  0.000000e+00  0.000000e+00  0.000000e+00  0.000000e+00  0.000000e+00  0.000000e+00  2.104442e-01  0.000000e+00  4.929334e-07  1.228503e-06  2.228181e-09  1.873844e-05  3.749469e-11  2.104446e-01  5.000000e+00 
 0.000000e+00  0.000000e+00  1.800000e+00  1.800000e+00  0.000000e+00  0.000000e+00  0.000000e+00  0.000000e+00  0.000000e+00  0.000000e+00  0.000000e+00  0.000000e+00  2.421074e-01  0.000000e+00  4.929334e-07  1.228503e-06  2.228341e-09  1.874288e-05 -4.191728e-12  2.421073e-01  6.000000e+00 
 0.000000e+00  1.800000e+00  1.800000e+00  1.800000e+00  0.000000e+00  0.000000e+00  0.000000e+00  0.000000e+00  0.000000e+00  0.000000e+00  0.000000e+00  0.000000e+00  2.716875e-01  0.000000e+00  4.929333e-07  1.228503e-06  2.230096e-09  1.873742e-05 -1.107013e-09  2.716765e-01  7.000000e+00 
 0.000000e+00  0.000000e+00  0.000000e+00  0.000000e+00  1.800000e+00  0.000000e+00  0.000000e+00  0.000000e+00  0.000000e+00  0.000000e+00  0.000000e+00  0.000000e+00  2.996011e-01  0.000000e+00  4.929334e-07  1.228503e-06  2.227759e-09  1.876302e-05 -1.348594e-10  2.995997e-01  8.000000e+00 
 0.000000e+00  1.800000e+00  0.000000e+00  0.000000e+00  1.800000e+00  0.000000e+00  0.000000e+00  0.000000e+00  0.000000e+00  0.000000e+00  0.000000e+00  0.000000e+00  3.259528e-01  0.000000e+00  4.929334e-07  1.228503e-06  2.314627e-09  1.875995e-05 -8.292543e-11  3.259519e-01  9.000000e+00 
 0.000000e+00  0.000000e+00  1.800000e+00  0.000000e+00  1.800000e+00  0.000000e+00  0.000000e+00  0.000000e+00  0.000000e+00  0.000000e+00  0.000000e+00  0.000000e+00  3.506382e-01  0.000000e+00  4.929334e-07  1.228503e-06  2.299478e-09  1.878606e-05 -3.690832e-10  3.506345e-01  1.000000e+01 
 0.000000e+00  1.800000e+00  1.800000e+00  0.000000e+00  1.800000e+00  0.000000e+00  0.000000e+00  0.000000e+00  0.000000e+00  0.000000e+00  0.000000e+00  0.000000e+00  3.742823e-01  0.000000e+00  4.929334e-07  1.228503e-06  2.322140e-09  1.882748e-05 -5.483288e-10  3.742768e-01  1.100000e+01 
 0.000000e+00  0.000000e+00  0.000000e+00  1.800000e+00  1.800000e+00  0.000000e+00  0.000000e+00  0.000000e+00  0.000000e+00  0.000000e+00  0.000000e+00  0.000000e+00  3.968851e-01  0.000000e+00  4.929334e-07  1.228503e-06  2.279371e-09  1.882855e-05  9.391941e-12  3.968852e-01  1.200000e+01 
 0.000000e+00  1.800000e+00  0.000000e+00  1.800000e+00  1.800000e+00  0.000000e+00  0.000000e+00  0.000000e+00  0.000000e+00  0.000000e+00  0.000000e+00  0.000000e+00  4.184470e-01  0.000000e+00  4.929334e-07  1.228503e-06  2.315886e-09  1.887015e-05  2.412617e-10  4.184494e-01  1.300000e+01 
 0.000000e+00  0.000000e+00  1.800000e+00  1.800000e+00  1.800000e+00  0.000000e+00  0.000000e+00  0.000000e+00  0.000000e+00  0.000000e+00  0.000000e+00  0.000000e+00  4.394892e-01  0.000000e+00  4.929251e-07  1.228487e-06  3.556660e-06  6.684610e-05 -2.026388e-09  4.394689e-01  1.400000e+01 
 0.000000e+00  1.800000e+00  1.800000e+00  1.800000e+00  1.800000e+00  0.000000e+00  0.000000e+00  0.000000e+00  0.000000e+00  0.000000e+00  0.000000e+00  0.000000e+00  4.593857e-01  0.000000e+00  4.929334e-07  1.228503e-06  2.226697e-09  1.894255e-05 -1.105824e-10  4.593846e-01  1.500000e+01 
 0.000000e+00  0.000000e+00  0.000000e+00  0.000000e+00  0.000000e+00  1.800000e+00  0.000000e+00  0.000000e+00  0.000000e+00  0.000000e+00  0.000000e+00  0.000000e+00  4.787668e-01  0.000000e+00  4.929334e-07  1.228503e-06  2.171037e-09  1.897371e-05 -1.883388e-10  4.787649e-01  1.600000e+01 
 0.000000e+00  1.800000e+00  0.000000e+00  0.000000e+00  0.000000e+00  1.800000e+00  0.000000e+00  0.000000e+00  0.000000e+00  0.000000e+00  0.000000e+00  0.000000e+00  4.971031e-01  0.000000e+00  4.929334e-07  1.228503e-06  2.235070e-09  1.903629e-05 -5.137511e-11  4.971025e-01  1.700000e+01 
 0.000000e+00  0.000000e+00  1.800000e+00  0.000000e+00  0.000000e+00  1.800000e+00  0.000000e+00  0.000000e+00  0.000000e+00  0.000000e+00  0.000000e+00  0.000000e+00  5.154399e-01  0.000000e+00  4.929334e-07  1.228503e-06  2.234962e-09  1.908594e-05  1.379332e-11  5.154401e-01  1.800000e+01 
 0.000000e+00  1.800000e+00  1.800000e+00  0.000000e+00  0.000000e+00  1.800000e+00  0.000000e+00  0.000000e+00  0.000000e+00  0.000000e+00  0.000000e+00  0.000000e+00  5.327358e-01  0.000000e+00  4.929334e-07  1.228503e-06  2.234485e-09  1.913744e-05  1.938008e-10  5.327378e-01  1.900000e+01 
 0.000000e+00  0.000000e+00  0.000000e+00  1.800000e+00  0.000000e+00  1.800000e+00  0.000000e+00  0.000000e+00  0.000000e+00  0.000000e+00  0.000000e+00  0.000000e+00  5.500321e-01  0.000000e+00  4.929334e-07  1.228503e-06  2.235601e-09  1.918926e-05  1.784458e-11  5.500322e-01  2.000000e+01 
 0.000000e+00  1.800000e+00  0.000000e+00  1.800000e+00  0.000000e+00  1.800000e+00  0.000000e+00  0.000000e+00  0.000000e+00  0.000000e+00  0.000000e+00  0.000000e+00  5.661829e-01  0.000000e+00  4.929334e-07  1.228503e-06  2.234162e-09  1.923741e-05  1.610071e-10  5.661845e-01  2.100000e+01 
 0.000000e+00  0.000000e+00  1.800000e+00  1.800000e+00  0.000000e+00  1.800000e+00  0.000000e+00  0.000000e+00  0.000000e+00  0.000000e+00  0.000000e+00  0.000000e+00  5.823340e-01  0.000000e+00  4.929334e-07  1.228503e-06  2.438724e-09  1.926376e-05  7.630601e-10  5.823416e-01  2.200000e+01 
 0.000000e+00  1.800000e+00  1.800000e+00  1.800000e+00  0.000000e+00  1.800000e+00  0.000000e+00  0.000000e+00  0.000000e+00  0.000000e+00  0.000000e+00  0.000000e+00  5.979642e-01  0.000000e+00  4.929334e-07  1.228503e-06  2.347392e-09  1.932086e-05  1.221578e-10  5.979654e-01  2.300000e+01 
 0.000000e+00  0.000000e+00  0.000000e+00  0.000000e+00  1.800000e+00  1.800000e+00  0.000000e+00  0.000000e+00  0.000000e+00  0.000000e+00  0.000000e+00  0.000000e+00  6.135937e-01  0.000000e+00  4.929334e-07  1.228503e-06  2.234088e-09  1.937854e-05  1.288918e-10  6.135950e-01  2.400000e+01 
 0.000000e+00  1.800000e+00  0.000000e+00  0.000000e+00  1.800000e+00  1.800000e+00  0.000000e+00  0.000000e+00  0.000000e+00  0.000000e+00  0.000000e+00  0.000000e+00  6.281820e-01  0.000000e+00  4.929334e-07  1.228503e-06  2.265623e-09  1.939878e-05 -2.917597e-10  6.281791e-01  2.500000e+01 
 0.000000e+00  0.000000e+00  1.800000e+00  0.000000e+00  1.800000e+00  1.800000e+00  0.000000e+00  0.000000e+00  0.000000e+00  0.000000e+00  0.000000e+00  0.000000e+00  6.427700e-01  0.000000e+00  4.929334e-07  1.228503e-06  2.236815e-09  1.945926e-05  3.424042e-10  6.427734e-01  2.600000e+01 
 0.000000e+00  1.800000e+00  1.800000e+00  0.000000e+00  1.800000e+00  1.800000e+00  0.000000e+00  0.000000e+00  0.000000e+00  0.000000e+00  0.000000e+00  0.000000e+00  6.568371e-01  0.000000e+00  4.929334e-07  1.228503e-06  2.234647e-09  1.947355e-05 -2.542187e-10  6.568345e-01  2.700000e+01 
 0.000000e+00  0.000000e+00  0.000000e+00  1.800000e+00  1.800000e+00  1.800000e+00  0.000000e+00  0.000000e+00  0.000000e+00  0.000000e+00  0.000000e+00  0.000000e+00  6.709036e-01  0.000000e+00  4.929334e-07  1.228503e-06  2.235455e-09  1.951223e-05  2.378742e-12  6.709036e-01  2.800000e+01 
 0.000000e+00  1.800000e+00  0.000000e+00  1.800000e+00  1.800000e+00  1.800000e+00  0.000000e+00  0.000000e+00  0.000000e+00  0.000000e+00  0.000000e+00  0.000000e+00  6.844492e-01  0.000000e+00  4.929334e-07  1.228503e-06  2.235257e-09  1.953180e-05 -1.671087e-11  6.844491e-01  2.900000e+01 
 0.000000e+00  0.000000e+00  1.800000e+00  1.800000e+00  1.800000e+00  1.800000e+00  0.000000e+00  0.000000e+00  0.000000e+00  0.000000e+00  0.000000e+00  0.000000e+00  6.979946e-01  0.000000e+00  4.929334e-07  1.228503e-06  2.235171e-09  1.955120e-05 -6.843518e-11  6.979939e-01  3.000000e+01 
 0.000000e+00  1.800000e+00  1.800000e+00  1.800000e+00  1.800000e+00  1.800000e+00  0.000000e+00  0.000000e+00  0.000000e+00  0.000000e+00  0.000000e+00  0.000000e+00  7.110191e-01  0.000000e+00  4.929334e-07  1.228503e-06  2.235300e-09  1.956900e-05 -1.505327e-10  7.110175e-01  3.100000e+01 
 0.000000e+00  0.000000e+00  0.000000e+00  0.000000e+00  0.000000e+00  0.000000e+00  1.800000e+00  0.000000e+00  0.000000e+00  0.000000e+00  0.000000e+00  0.000000e+00  7.240378e-01  0.000000e+00  4.929334e-07  1.228503e-06  2.228245e-09  1.958142e-05 -6.412828e-12  7.240377e-01  3.200000e+01 
 0.000000e+00  1.800000e+00  0.000000e+00  0.000000e+00  0.000000e+00  0.000000e+00  1.800000e+00  0.000000e+00  0.000000e+00  0.000000e+00  0.000000e+00  0.000000e+00  7.365410e-01  0.000000e+00  4.929334e-07  1.228503e-06  2.227184e-09  1.958485e-05 -4.704732e-10  7.365363e-01  3.300000e+01 
 0.000000e+00  0.000000e+00  1.800000e+00  0.000000e+00  0.000000e+00  0.000000e+00  1.800000e+00  0.000000e+00  0.000000e+00  0.000000e+00  0.000000e+00  0.000000e+00  7.490440e-01  0.000000e+00  4.929334e-07  1.228503e-06  2.245881e-09  1.958720e-05  2.841461e-10  7.490468e-01  3.400000e+01 
 0.000000e+00  1.800000e+00  1.800000e+00  0.000000e+00  0.000000e+00  0.000000e+00  1.800000e+00  0.000000e+00  0.000000e+00  0.000000e+00  0.000000e+00  0.000000e+00  7.615469e-01  0.000000e+00  4.929334e-07  1.228503e-06  2.252036e-09  1.959605e-05  2.866784e-10  7.615498e-01  3.500000e+01 
 0.000000e+00  0.000000e+00  0.000000e+00  1.800000e+00  0.000000e+00  0.000000e+00  1.800000e+00  0.000000e+00  0.000000e+00  0.000000e+00  0.000000e+00  0.000000e+00  7.734248e-01  0.000000e+00  4.929334e-07  1.228503e-06  2.112986e-09  1.959323e-05  2.039206e-10  7.734268e-01  3.600000e+01 
 0.000000e+00  1.800000e+00  0.000000e+00  1.800000e+00  0.000000e+00  0.000000e+00  1.800000e+00  0.000000e+00  0.000000e+00  0.000000e+00  0.000000e+00  0.000000e+00  7.847820e-01  0.000000e+00  4.929334e-07  1.228503e-06  2.228326e-09  1.961145e-05  1.827457e-10  7.847838e-01  3.700000e+01 
 0.000000e+00  0.000000e+00  1.800000e+00  1.800000e+00  0.000000e+00  0.000000e+00  1.800000e+00  0.000000e+00  0.000000e+00  0.000000e+00  0.000000e+00  0.000000e+00  7.966599e-01  0.000000e+00  4.929334e-07  1.228503e-06  2.228070e-09  1.961507e-05 -1.041885e-11  7.966598e-01  3.800000e+01 
 0.000000e+00  1.800000e+00  1.800000e+00  1.800000e+00  0.000000e+00  0.000000e+00  1.800000e+00  0.000000e+00  0.000000e+00  0.000000e+00  0.000000e+00  0.000000e+00  8.080171e-01  0.000000e+00  4.929334e-07  1.228503e-06  2.227316e-09  1.961972e-05 -4.316673e-11  8.080166e-01  3.900000e+01 
 0.000000e+00  0.000000e+00  0.000000e+00  0.000000e+00  1.800000e+00  0.000000e+00  1.800000e+00  0.000000e+00  0.000000e+00  0.000000e+00  0.000000e+00  0.000000e+00  8.188530e-01  0.000000e+00  4.929334e-07  1.228503e-06  2.160972e-09  1.961946e-05  1.526060e-10  8.188545e-01  4.000000e+01 
 0.000000e+00  1.800000e+00  0.000000e+00  0.000000e+00  1.800000e+00  0.000000e+00  1.800000e+00  0.000000e+00  0.000000e+00  0.000000e+00  0.000000e+00  0.000000e+00  8.302101e-01  0.000000e+00  4.929334e-07  1.228503e-06  2.228042e-09  1.962179e-05 -3.658297e-10  8.302064e-01  4.100000e+01 
 0.000000e+00  0.000000e+00  1.800000e+00  0.000000e+00  1.800000e+00  0.000000e+00  1.800000e+00  0.000000e+00  0.000000e+00  0.000000e+00  0.000000e+00  0.000000e+00  8.410464e-01  0.000000e+00  4.929334e-07  1.228503e-06  2.228076e-09  1.962149e-05  2.671801e-11  8.410467e-01  4.200000e+01 
 0.000000e+00  1.800000e+00  1.800000e+00  0.000000e+00  1.800000e+00  0.000000e+00  1.800000e+00  0.000000e+00  0.000000e+00  0.000000e+00  0.000000e+00  0.000000e+00  8.513622e-01  0.000000e+00  4.929334e-07  1.228503e-06  2.192919e-09  1.961775e-05 -5.818913e-10  8.513564e-01  4.300000e+01 
 0.000000e+00  0.000000e+00  0.000000e+00  1.800000e+00  1.800000e+00  0.000000e+00  1.800000e+00  0.000000e+00  0.000000e+00  0.000000e+00  0.000000e+00  0.000000e+00  8.621984e-01  0.000000e+00  4.929334e-07  1.228503e-06  2.225931e-09  1.960874e-05 -4.676835e-11  8.621979e-01  4.400000e+01 
 0.000000e+00  1.800000e+00  0.000000e+00  1.800000e+00  1.800000e+00  0.000000e+00  1.800000e+00  0.000000e+00  0.000000e+00  0.000000e+00  0.000000e+00  0.000000e+00  8.725141e-01  0.000000e+00  4.929334e-07  1.228503e-06  2.228747e-09  1.962804e-05 -1.254789e-10  8.725128e-01  4.500000e+01 
 0.000000e+00  0.000000e+00  1.800000e+00  1.800000e+00  1.800000e+00  0.000000e+00  1.800000e+00  0.000000e+00  0.000000e+00  0.000000e+00  0.000000e+00  0.000000e+00  8.828297e-01  0.000000e+00  4.929334e-07  1.228503e-06  2.226207e-09  1.961536e-05 -1.302264e-10  8.828284e-01  4.600000e+01 
 0.000000e+00  1.800000e+00  1.800000e+00  1.800000e+00  1.800000e+00  0.000000e+00  1.800000e+00  0.000000e+00  0.000000e+00  0.000000e+00  0.000000e+00  0.000000e+00  8.931454e-01  0.000000e+00  4.929334e-07  1.228503e-06  2.227998e-09  1.961710e-05  2.411715e-10  8.931478e-01  4.700000e+01 
 0.000000e+00  0.000000e+00  0.000000e+00  0.000000e+00  0.000000e+00  1.800000e+00  1.800000e+00  0.000000e+00  0.000000e+00  0.000000e+00  0.000000e+00  0.000000e+00  9.029359e-01  0.000000e+00  4.929334e-07  1.228503e-06  2.172263e-09  1.961518e-05  1.150001e-10  9.029370e-01  4.800000e+01 
 0.000000e+00  1.800000e+00  0.000000e+00  0.000000e+00  0.000000e+00  1.800000e+00  1.800000e+00  0.000000e+00  0.000000e+00  0.000000e+00  0.000000e+00  0.000000e+00  9.132515e-01  0.000000e+00  4.929334e-07  1.228503e-06  2.234924e-09  1.961460e-05 -1.128773e-11  9.132514e-01  4.900000e+01 
 0.000000e+00  0.000000e+00  1.800000e+00  0.000000e+00  0.000000e+00  1.800000e+00  1.800000e+00  0.000000e+00  0.000000e+00  0.000000e+00  0.000000e+00  0.000000e+00  9.230464e-01  0.000000e+00  4.929334e-07  1.228503e-06  2.235477e-09  1.961705e-05  3.695789e-11  9.230467e-01  5.000000e+01 
 0.000000e+00  1.800000e+00  1.800000e+00  0.000000e+00  0.000000e+00  1.800000e+00  1.800000e+00  0.000000e+00  0.000000e+00  0.000000e+00  0.000000e+00  0.000000e+00  9.323206e-01  0.000000e+00  4.929334e-07  1.228503e-06  2.236682e-09  1.961359e-05  1.833547e-10  9.323225e-01  5.100000e+01 
 0.000000e+00  0.000000e+00  0.000000e+00  1.800000e+00  0.000000e+00  1.800000e+00  1.800000e+00  0.000000e+00  0.000000e+00  0.000000e+00  0.000000e+00  0.000000e+00  9.421155e-01  0.000000e+00  4.929334e-07  1.228503e-06  2.235961e-09  1.961712e-05  1.180421e-10  9.421166e-01  5.200000e+01 
 0.000000e+00  1.800000e+00  0.000000e+00  1.800000e+00  0.000000e+00  1.800000e+00  1.800000e+00  0.000000e+00  0.000000e+00  0.000000e+00  0.000000e+00  0.000000e+00  9.513897e-01  0.000000e+00  4.929334e-07  1.228503e-06  2.235460e-09  1.961156e-05  2.731470e-10  9.513924e-01  5.300000e+01 
 0.000000e+00  0.000000e+00  1.800000e+00  1.800000e+00  0.000000e+00  1.800000e+00  1.800000e+00  0.000000e+00  0.000000e+00  0.000000e+00  0.000000e+00  0.000000e+00  9.606640e-01  0.000000e+00  4.929334e-07  1.228503e-06  2.166187e-09  1.960553e-05 -7.200534e-11  9.606633e-01  5.400000e+01 
 0.000000e+00  1.800000e+00  1.800000e+00  1.800000e+00  0.000000e+00  1.800000e+00  1.800000e+00  0.000000e+00  0.000000e+00  0.000000e+00  0.000000e+00  0.000000e+00  9.699383e-01  0.000000e+00  4.929334e-07  1.228503e-06  2.234224e-09  1.960519e-05 -1.969100e-10  9.699364e-01  5.500000e+01 
 0.000000e+00  0.000000e+00  0.000000e+00  0.000000e+00  1.800000e+00  1.800000e+00  1.800000e+00  0.000000e+00  0.000000e+00  0.000000e+00  0.000000e+00  0.000000e+00  9.792123e-01  0.000000e+00  4.929334e-07  1.228503e-06  2.275545e-09  1.961141e-05  2.933498e-10  9.792152e-01  5.600000e+01 
 0.000000e+00  1.800000e+00  0.000000e+00  0.000000e+00  1.800000e+00  1.800000e+00  1.800000e+00  0.000000e+00  0.000000e+00  0.000000e+00  0.000000e+00  0.000000e+00  9.884866e-01  0.000000e+00  4.929334e-07  1.228503e-06  2.235834e-09  1.961090e-05  1.597730e-10  9.884882e-01  5.700000e+01 
 0.000000e+00  0.000000e+00  1.800000e+00  0.000000e+00  1.800000e+00  1.800000e+00  1.800000e+00  0.000000e+00  0.000000e+00  0.000000e+00  0.000000e+00  0.000000e+00  9.972403e-01  0.000000e+00  4.929334e-07  1.228503e-06  2.232618e-09  1.960109e-05  5.852189e-13  9.972403e-01  5.800000e+01 
 0.000000e+00  1.800000e+00  1.800000e+00  0.000000e+00  1.800000e+00  1.800000e+00  1.800000e+00  0.000000e+00  0.000000e+00  0.000000e+00  0.000000e+00  0.000000e+00  1.005994e+00  0.000000e+00  4.929334e-07  1.228503e-06  2.233405e-09  1.960568e-05  1.691598e-11  1.005994e+00  5.900000e+01 
 0.000000e+00  0.000000e+00  0.000000e+00  1.800000e+00  1.800000e+00  1.800000e+00  1.800000e+00  0.000000e+00  0.000000e+00  0.000000e+00  0.000000e+00  0.000000e+00  1.014748e+00  0.000000e+00  4.929334e-07  1.228503e-06  2.178854e-09  1.960341e-05 -2.502601e-11  1.014748e+00  6.000000e+01 
 0.000000e+00  1.800000e+00  0.000000e+00  1.800000e+00  1.800000e+00  1.800000e+00  1.800000e+00  0.000000e+00  0.000000e+00  0.000000e+00  0.000000e+00  0.000000e+00  1.023502e+00  0.000000e+00  4.929334e-07  1.228503e-06  2.046488e-09  1.960351e-05  2.712221e-12  1.023502e+00  6.100000e+01 
 0.000000e+00  0.000000e+00  1.800000e+00  1.800000e+00  1.800000e+00  1.800000e+00  1.800000e+00  0.000000e+00  0.000000e+00  0.000000e+00  0.000000e+00  0.000000e+00  1.032256e+00  0.000000e+00  4.929334e-07  1.228503e-06  2.344759e-09  1.959688e-05 -1.972917e-10  1.032254e+00  6.200000e+01 
 0.000000e+00  1.800000e+00  1.800000e+00  1.800000e+00  1.800000e+00  1.800000e+00  1.800000e+00  0.000000e+00  0.000000e+00  0.000000e+00  0.000000e+00  0.000000e+00  1.041011e+00  0.000000e+00  4.929334e-07  1.228503e-06  2.233271e-09  1.959890e-05 -7.022959e-12  1.041011e+00  6.300000e+01 
 0.000000e+00  0.000000e+00  0.000000e+00  0.000000e+00  0.000000e+00  0.000000e+00  0.000000e+00  1.800000e+00  0.000000e+00  0.000000e+00  0.000000e+00  0.000000e+00  1.049226e+00  0.000000e+00  4.929334e-07  1.228503e-06  2.164331e-09  1.960055e-05 -6.847977e-11  1.049225e+00  6.400000e+01 
 0.000000e+00  1.800000e+00  0.000000e+00  0.000000e+00  0.000000e+00  0.000000e+00  0.000000e+00  1.800000e+00  0.000000e+00  0.000000e+00  0.000000e+00  0.000000e+00  1.055124e+00  0.000000e+00  4.929334e-07  1.228503e-06  2.150250e-09  1.961807e-05  2.122459e-10  1.055126e+00  6.500000e+01 
