 v-sweep       d0            d1            d2            d3            d4            d5            d6            d7            d8            d9            in            load          v-sweep       vmeas#branch  vmeas1#branch vmeas2#branch vmeas4#branch vmeas5#branch vout          ndata        
 0.000000e+00  0.000000e+00  0.000000e+00  0.000000e+00  0.000000e+00  0.000000e+00  0.000000e+00  0.000000e+00  0.000000e+00  0.000000e+00  0.000000e+00  0.000000e+00  3.387315e-04  0.000000e+00  3.997344e-07  9.996175e-07  9.062186e-10  1.590833e-05  1.058570e-08  4.445886e-04  0.000000e+00 
 0.000000e+00  1.800000e+00  0.000000e+00  0.000000e+00  0.000000e+00  0.000000e+00  0.000000e+00  0.000000e+00  0.000000e+00  0.000000e+00  0.000000e+00  0.000000e+00  5.250119e-02  0.000000e+00  3.997344e-07  9.996175e-07  3.261680e-09  1.600995e-05 -1.049704e-11  5.250108e-02  1.000000e+00 
 0.000000e+00  0.000000e+00  1.800000e+00  0.000000e+00  0.000000e+00  0.000000e+00  0.000000e+00  0.000000e+00  0.000000e+00  0.000000e+00  0.000000e+00  0.000000e+00  9.853414e-02  0.000000e+00  3.997344e-07  9.996175e-07  3.267421e-09  1.602803e-05  8.208243e-11  9.853496e-02  2.000000e+00 
 0.000000e+00  1.800000e+00  1.800000e+00  0.000000e+00  0.000000e+00  0.000000e+00  0.000000e+00  0.000000e+00  0.000000e+00  0.000000e+00  0.000000e+00  0.000000e+00  1.392529e-01  0.000000e+00  3.997344e-07  9.996175e-07  3.223006e-09  1.603628e-05  3.334774e-11  1.392532e-01  3.000000e+00 
 0.000000e+00  0.000000e+00  0.000000e+00  1.800000e+00  0.000000e+00  0.000000e+00  0.000000e+00  0.000000e+00  0.000000e+00  0.000000e+00  0.000000e+00  0.000000e+00  1.762208e-01  0.000000e+00  3.997344e-07  9.996175e-07  5.570616e-09  1.604515e-05  8.134887e-12  1.762208e-01  4.000000e+00 
 0.000000e+00  1.800000e+00  0.000000e+00  1.800000e+00  0.000000e+00  0.000000e+00  0.000000e+00  0.000000e+00  0.000000e+00  0.000000e+00  0.000000e+00  0.000000e+00  2.105842e-01  0.000000e+00  3.997351e-07  9.996169e-07 -4.854811e-10  1.633398e-05  2.811259e-10  2.105870e-01  5.000000e+00 
 0.000000e+00  0.000000e+00  1.800000e+00  1.800000e+00  0.000000e+00  0.000000e+00  0.000000e+00  0.000000e+00  0.000000e+00  0.000000e+00  0.000000e+00  0.000000e+00  2.422391e-01  0.000000e+00  3.997344e-07  9.996175e-07  3.251019e-09  1.603248e-05 -2.047118e-11  2.422389e-01  6.000000e+00 
 0.000000e+00  1.800000e+00  1.800000e+00  1.800000e+00  0.000000e+00  0.000000e+00  0.000000e+00  0.000000e+00  0.000000e+00  0.000000e+00  0.000000e+00  0.000000e+00  2.718106e-01  0.000000e+00  3.997344e-07  9.996175e-07  2.910224e-09  1.605659e-05  1.646890e-11  2.718107e-01  7.000000e+00 
 0.000000e+00  0.000000e+00  0.000000e+00  0.000000e+00  1.800000e+00  0.000000e+00  0.000000e+00  0.000000e+00  0.000000e+00  0.000000e+00  0.000000e+00  0.000000e+00  2.997172e-01  0.000000e+00  3.997344e-07  9.996175e-07  3.264313e-09  1.603602e-05  3.618397e-11  2.997175e-01  8.000000e+00 
 0.000000e+00  1.800000e+00  0.000000e+00  0.000000e+00  1.800000e+00  0.000000e+00  0.000000e+00  0.000000e+00  0.000000e+00  0.000000e+00  0.000000e+00  0.000000e+00  3.260816e-01  0.000000e+00  3.997344e-07  9.996175e-07  2.860744e-09  1.601971e-05 -1.028122e-11  3.260815e-01  9.000000e+00 
 0.000000e+00  0.000000e+00  1.800000e+00  0.000000e+00  1.800000e+00  0.000000e+00  0.000000e+00  0.000000e+00  0.000000e+00  0.000000e+00  0.000000e+00  0.000000e+00  3.507568e-01  0.000000e+00  3.997344e-07  9.996175e-07  3.251182e-09  1.603483e-05  1.126039e-11  3.507569e-01  1.000000e+01 
 0.000000e+00  1.800000e+00  1.800000e+00  0.000000e+00  1.800000e+00  0.000000e+00  0.000000e+00  0.000000e+00  0.000000e+00  0.000000e+00  0.000000e+00  0.000000e+00  3.743903e-01  0.000000e+00  3.997344e-07  9.996175e-07  3.239112e-09  1.606054e-05  1.061920e-10  3.743914e-01  1.100000e+01 
 0.000000e+00  0.000000e+00  0.000000e+00  1.800000e+00  1.800000e+00  0.000000e+00  0.000000e+00  0.000000e+00  0.000000e+00  0.000000e+00  0.000000e+00  0.000000e+00  3.969818e-01  0.000000e+00  3.997344e-07  9.996175e-07  3.250955e-09  1.604173e-05 -2.674394e-11  3.969815e-01  1.200000e+01 
 0.000000e+00  1.800000e+00  0.000000e+00  1.800000e+00  1.800000e+00  0.000000e+00  0.000000e+00  0.000000e+00  0.000000e+00  0.000000e+00  0.000000e+00  0.000000e+00  4.185317e-01  0.000000e+00  3.997344e-07  9.996175e-07  3.234905e-09  1.604541e-05  1.686339e-11  4.185319e-01  1.300000e+01 
 0.000000e+00  0.000000e+00  1.800000e+00  1.800000e+00  1.800000e+00  0.000000e+00  0.000000e+00  0.000000e+00  0.000000e+00  0.000000e+00  0.000000e+00  0.000000e+00  4.395607e-01  0.000000e+00  3.997344e-07  9.996175e-07  2.889104e-09  1.600020e-05 -7.467807e-11  4.395600e-01  1.400000e+01 
 0.000000e+00  1.800000e+00  1.800000e+00  1.800000e+00  1.800000e+00  0.000000e+00  0.000000e+00  0.000000e+00  0.000000e+00  0.000000e+00  0.000000e+00  0.000000e+00  4.594445e-01  0.000000e+00  3.997343e-07  9.996175e-07  3.561404e-09  1.604374e-05 -1.610571e-10  4.594429e-01  1.500000e+01 
 0.000000e+00  0.000000e+00  0.000000e+00  0.000000e+00  0.000000e+00  1.800000e+00  0.000000e+00  0.000000e+00  0.000000e+00  0.000000e+00  0.000000e+00  0.000000e+00  4.788132e-01  0.000000e+00  3.997344e-07  9.996175e-07  3.279561e-09  1.606789e-05 -3.375008e-11  4.788128e-01  1.600000e+01 
 0.000000e+00  1.800000e+00  0.000000e+00  0.000000e+00  0.000000e+00  1.800000e+00  0.000000e+00  0.000000e+00  0.000000e+00  0.000000e+00  0.000000e+00  0.000000e+00  4.971455e-01  0.000000e+00  3.997344e-07  9.996175e-07  3.266395e-09  1.608576e-05 -2.977900e-11  4.971452e-01  1.700000e+01 
 0.000000e+00  0.000000e+00  1.800000e+00  0.000000e+00  0.000000e+00  1.800000e+00  0.000000e+00  0.000000e+00  0.000000e+00  0.000000e+00  0.000000e+00  0.000000e+00  5.154661e-01  0.000000e+00  3.997344e-07  9.996175e-07  3.264827e-09  1.609404e-05 -2.231989e-11  5.154659e-01  1.800000e+01 
 0.000000e+00  1.800000e+00  1.800000e+00  0.000000e+00  0.000000e+00  1.800000e+00  0.000000e+00  0.000000e+00  0.000000e+00  0.000000e+00  0.000000e+00  0.000000e+00  5.327444e-01  0.000000e+00  3.997343e-07  9.996175e-07  2.827782e-09  1.604837e-05  1.913516e-10  5.327463e-01  1.900000e+01 
 0.000000e+00  0.000000e+00  0.000000e+00  1.800000e+00  0.000000e+00  1.800000e+00  0.000000e+00  0.000000e+00  0.000000e+00  0.000000e+00  0.000000e+00  0.000000e+00  5.500233e-01  0.000000e+00  3.997344e-07  9.996175e-07  3.265428e-09  1.613201e-05  4.692523e-11  5.500237e-01  2.000000e+01 
 0.000000e+00  1.800000e+00  0.000000e+00  1.800000e+00  0.000000e+00  1.800000e+00  0.000000e+00  0.000000e+00  0.000000e+00  0.000000e+00  0.000000e+00  0.000000e+00  5.661559e-01  0.000000e+00  3.997344e-07  9.996175e-07  3.239011e-09  1.612619e-05 -5.280900e-11  5.661554e-01  2.100000e+01 
 0.000000e+00  0.000000e+00  1.800000e+00  1.800000e+00  0.000000e+00  1.800000e+00  0.000000e+00  0.000000e+00  0.000000e+00  0.000000e+00  0.000000e+00  0.000000e+00  5.822894e-01  0.000000e+00  3.997344e-07  9.996175e-07  3.249922e-09  1.618900e-05 -3.962246e-12  5.822894e-01  2.200000e+01 
 0.000000e+00  1.800000e+00  1.800000e+00  1.800000e+00  0.000000e+00  1.800000e+00  0.000000e+00  0.000000e+00  0.000000e+00  0.000000e+00  0.000000e+00  0.000000e+00  5.979018e-01  0.000000e+00  3.997344e-07  9.996175e-07  3.234349e-09  1.622273e-05 -5.562515e-12  5.979017e-01  2.300000e+01 
 0.000000e+00  0.000000e+00  0.000000e+00  0.000000e+00  1.800000e+00  1.800000e+00  0.000000e+00  0.000000e+00  0.000000e+00  0.000000e+00  0.000000e+00  0.000000e+00  6.135165e-01  0.000000e+00  3.997664e-07  9.996983e-07 -3.177919e-06 -8.770563e-05  6.247394e-09  6.135789e-01  2.400000e+01 
 0.000000e+00  1.800000e+00  0.000000e+00  0.000000e+00  1.800000e+00  1.800000e+00  0.000000e+00  0.000000e+00  0.000000e+00  0.000000e+00  0.000000e+00  0.000000e+00  6.281101e-01  0.000000e+00  3.997344e-07  9.996175e-07  3.279489e-09  1.630456e-05  6.163094e-11  6.281107e-01  2.500000e+01 
 0.000000e+00  0.000000e+00  1.800000e+00  0.000000e+00  1.800000e+00  1.800000e+00  0.000000e+00  0.000000e+00  0.000000e+00  0.000000e+00  0.000000e+00  0.000000e+00  6.426816e-01  0.000000e+00  3.997344e-07  9.996175e-07  3.249949e-09  1.633775e-05 -1.134519e-11  6.426815e-01  2.600000e+01 
 0.000000e+00  1.800000e+00  1.800000e+00  0.000000e+00  1.800000e+00  1.800000e+00  0.000000e+00  0.000000e+00  0.000000e+00  0.000000e+00  0.000000e+00  0.000000e+00  6.567333e-01  0.000000e+00  3.997343e-07  9.996175e-07  3.235079e-09  1.638458e-05  1.984695e-11  6.567335e-01  2.700000e+01 
 0.000000e+00  0.000000e+00  0.000000e+00  1.800000e+00  1.800000e+00  1.800000e+00  0.000000e+00  0.000000e+00  0.000000e+00  0.000000e+00  0.000000e+00  0.000000e+00  6.707844e-01  0.000000e+00  3.997343e-07  9.996174e-07  3.608258e-09  1.646998e-05  2.786239e-10  6.707872e-01  2.800000e+01 
 0.000000e+00  1.800000e+00  0.000000e+00  1.800000e+00  1.800000e+00  1.800000e+00  0.000000e+00  0.000000e+00  0.000000e+00  0.000000e+00  0.000000e+00  0.000000e+00  6.843157e-01  0.000000e+00  3.997344e-07  9.996175e-07  3.220538e-09  1.643566e-05 -9.635394e-11  6.843148e-01  2.900000e+01 
 0.000000e+00  0.000000e+00  1.800000e+00  1.800000e+00  1.800000e+00  1.800000e+00  0.000000e+00  0.000000e+00  0.000000e+00  0.000000e+00  0.000000e+00  0.000000e+00  6.978464e-01  0.000000e+00  3.997343e-07  9.996175e-07  3.242640e-09  1.654118e-05 -1.388910e-11  6.978463e-01  3.000000e+01 
 0.000000e+00  1.800000e+00  1.800000e+00  1.800000e+00  1.800000e+00  1.800000e+00  0.000000e+00  0.000000e+00  0.000000e+00  0.000000e+00  0.000000e+00  0.000000e+00  7.108572e-01  0.000000e+00  3.997036e-07  9.995367e-07  2.961749e-06  1.199784e-04 -5.417920e-09  7.108031e-01  3.100000e+01 
 0.000000e+00  0.000000e+00  0.000000e+00  0.000000e+00  0.000000e+00  0.000000e+00  1.800000e+00  0.000000e+00  0.000000e+00  0.000000e+00  0.000000e+00  0.000000e+00  7.238743e-01  0.000000e+00  3.997663e-07  9.996978e-07 -3.247152e-06 -8.677408e-05  5.945832e-09  7.239338e-01  3.200000e+01 
 0.000000e+00  1.800000e+00  0.000000e+00  0.000000e+00  0.000000e+00  0.000000e+00  1.800000e+00  0.000000e+00  0.000000e+00  0.000000e+00  0.000000e+00  0.000000e+00  7.363747e-01  0.000000e+00  3.997343e-07  9.996175e-07  3.220761e-09  1.665181e-05  6.871459e-11  7.363754e-01  3.300000e+01 
 0.000000e+00  0.000000e+00  1.800000e+00  0.000000e+00  0.000000e+00  0.000000e+00  1.800000e+00  0.000000e+00  0.000000e+00  0.000000e+00  0.000000e+00  0.000000e+00  7.488638e-01  0.000000e+00  3.997348e-07  9.996182e-07  7.548153e-09  1.666246e-05  1.813978e-10  7.488656e-01  3.400000e+01 
 0.000000e+00  1.800000e+00  1.800000e+00  0.000000e+00  0.000000e+00  0.000000e+00  1.800000e+00  0.000000e+00  0.000000e+00  0.000000e+00  0.000000e+00  0.000000e+00  7.613530e-01  0.000000e+00  3.997343e-07  9.996175e-07  2.874221e-09  1.666169e-05  6.817341e-11  7.613536e-01  3.500000e+01 
 0.000000e+00  0.000000e+00  0.000000e+00  1.800000e+00  0.000000e+00  0.000000e+00  1.800000e+00  0.000000e+00  0.000000e+00  0.000000e+00  0.000000e+00  0.000000e+00  7.732160e-01  0.000000e+00  3.997343e-07  9.996175e-07  2.902294e-09  1.663879e-05 -2.766637e-11  7.732157e-01  3.600000e+01 
 0.000000e+00  1.800000e+00  0.000000e+00  1.800000e+00  0.000000e+00  0.000000e+00  1.800000e+00  0.000000e+00  0.000000e+00  0.000000e+00  0.000000e+00  0.000000e+00  7.845582e-01  0.000000e+00  3.997343e-07  9.996175e-07  2.807423e-09  1.664646e-05  2.398775e-11  7.845584e-01  3.700000e+01 
 0.000000e+00  0.000000e+00  1.800000e+00  1.800000e+00  0.000000e+00  0.000000e+00  1.800000e+00  0.000000e+00  0.000000e+00  0.000000e+00  0.000000e+00  0.000000e+00  7.964211e-01  0.000000e+00  3.997343e-07  9.996175e-07  3.276716e-09  1.672026e-05  1.490465e-11  7.964213e-01  3.800000e+01 
 0.000000e+00  1.800000e+00  1.800000e+00  1.800000e+00  0.000000e+00  0.000000e+00  1.800000e+00  0.000000e+00  0.000000e+00  0.000000e+00  0.000000e+00  0.000000e+00  8.077632e-01  0.000000e+00  3.997343e-07  9.996175e-07  3.212193e-09  1.673509e-05 -9.224263e-12  8.077631e-01  3.900000e+01 
 0.000000e+00  0.000000e+00  0.000000e+00  0.000000e+00  1.800000e+00  0.000000e+00  1.800000e+00  0.000000e+00  0.000000e+00  0.000000e+00  0.000000e+00  0.000000e+00  8.185856e-01  0.000000e+00  3.997343e-07  9.996175e-07  3.251872e-09  1.674481e-05  2.933193e-11  8.185859e-01  4.000000e+01 
 0.000000e+00  1.800000e+00  0.000000e+00  0.000000e+00  1.800000e+00  0.000000e+00  1.800000e+00  0.000000e+00  0.000000e+00  0.000000e+00  0.000000e+00  0.000000e+00  8.299490e-01  0.000000e+00  3.997343e-07  9.996175e-07  3.563593e-09  1.681313e-05  1.615120e-11  8.299492e-01  4.100000e+01 
 0.000000e+00  0.000000e+00  1.800000e+00  0.000000e+00  1.800000e+00  0.000000e+00  1.800000e+00  0.000000e+00  0.000000e+00  0.000000e+00  0.000000e+00  0.000000e+00  8.407699e-01  0.000000e+00  3.997343e-07  9.996175e-07  2.948471e-09  1.669465e-05 -8.241402e-12  8.407698e-01  4.200000e+01 
 0.000000e+00  1.800000e+00  1.800000e+00  0.000000e+00  1.800000e+00  0.000000e+00  1.800000e+00  0.000000e+00  0.000000e+00  0.000000e+00  0.000000e+00  0.000000e+00  8.510702e-01  0.000000e+00  3.996997e-07  9.995364e-07  3.097628e-06  1.234724e-04 -6.369029e-09  8.510065e-01  4.300000e+01 
 0.000000e+00  0.000000e+00  0.000000e+00  1.800000e+00  1.800000e+00  0.000000e+00  1.800000e+00  0.000000e+00  0.000000e+00  0.000000e+00  0.000000e+00  0.000000e+00  8.618907e-01  0.000000e+00  3.997657e-07  9.996987e-07 -3.108089e-06 -8.655409e-05  6.122792e-09  8.619519e-01  4.400000e+01 
 0.000000e+00  1.800000e+00  0.000000e+00  1.800000e+00  1.800000e+00  0.000000e+00  1.800000e+00  0.000000e+00  0.000000e+00  0.000000e+00  0.000000e+00  0.000000e+00  8.721914e-01  0.000000e+00  3.997685e-07  9.997027e-07 -3.106145e-06 -8.324020e-05  6.053261e-09  8.722520e-01  4.500000e+01 
 0.000000e+00  0.000000e+00  1.800000e+00  1.800000e+00  1.800000e+00  0.000000e+00  1.800000e+00  0.000000e+00  0.000000e+00  0.000000e+00  0.000000e+00  0.000000e+00  8.824918e-01  0.000000e+00  3.997343e-07  9.996175e-07  3.239056e-09  1.680391e-05  2.181366e-11  8.824920e-01  4.600000e+01 
 0.000000e+00  1.800000e+00  1.800000e+00  1.800000e+00  1.800000e+00  0.000000e+00  1.800000e+00  0.000000e+00  0.000000e+00  0.000000e+00  0.000000e+00  0.000000e+00  8.927925e-01  0.000000e+00  3.997343e-07  9.996174e-07  2.952471e-09  1.671912e-05 -1.829099e-11  8.927923e-01  4.700000e+01 
 0.000000e+00  0.000000e+00  0.000000e+00  0.000000e+00  0.000000e+00  1.800000e+00  1.800000e+00  0.000000e+00  0.000000e+00  0.000000e+00  0.000000e+00  0.000000e+00  9.025811e-01  0.000000e+00  3.997343e-07  9.996175e-07  3.001430e-09  1.672312e-05 -9.952722e-12  9.025810e-01  4.800000e+01 
 0.000000e+00  1.800000e+00  0.000000e+00  0.000000e+00  0.000000e+00  1.800000e+00  1.800000e+00  0.000000e+00  0.000000e+00  0.000000e+00  0.000000e+00  0.000000e+00  9.128925e-01  0.000000e+00  3.997343e-07  9.996162e-07  2.538252e-08  1.603242e-05  4.390731e-11  9.128929e-01  4.900000e+01 
 0.000000e+00  0.000000e+00  1.800000e+00  0.000000e+00  0.000000e+00  1.800000e+00  1.800000e+00  0.000000e+00  0.000000e+00  0.000000e+00  0.000000e+00  0.000000e+00  9.226720e-01  0.000000e+00  3.997343e-07  9.996175e-07  3.244339e-09  1.674785e-05 -1.143735e-11  9.226719e-01  5.000000e+01 
 0.000000e+00  1.800000e+00  1.800000e+00  0.000000e+00  0.000000e+00  1.800000e+00  1.800000e+00  0.000000e+00  0.000000e+00  0.000000e+00  0.000000e+00  0.000000e+00  9.319300e-01  0.000000e+00  3.997343e-07  9.996175e-07  3.280028e-09  1.674722e-05 -1.261991e-11  9.319299e-01  5.100000e+01 
 0.000000e+00  0.000000e+00  0.000000e+00  1.800000e+00  0.000000e+00  1.800000e+00  1.800000e+00  0.000000e+00  0.000000e+00  0.000000e+00  0.000000e+00  0.000000e+00  9.417088e-01  0.000000e+00  3.997342e-07  9.996174e-07  3.565355e-09  1.676501e-05  5.129930e-12  9.417088e-01  5.200000e+01 
 0.000000e+00  1.800000e+00  0.000000e+00  1.800000e+00  0.000000e+00  1.800000e+00  1.800000e+00  0.000000e+00  0.000000e+00  0.000000e+00  0.000000e+00  0.000000e+00  9.509668e-01  0.000000e+00  3.997343e-07  9.996175e-07  3.233722e-09  1.677741e-05  3.701577e-11  9.509672e-01  5.300000e+01 
 0.000000e+00  0.000000e+00  1.800000e+00  1.800000e+00  0.000000e+00  1.800000e+00  1.800000e+00  0.000000e+00  0.000000e+00  0.000000e+00  0.000000e+00  0.000000e+00  9.602255e-01  0.000000e+00  3.997354e-07  9.996192e-07 -1.589339e-08  1.610510e-05  3.634045e-11  9.602259e-01  5.400000e+01 
 0.000000e+00  1.800000e+00  1.800000e+00  1.800000e+00  0.000000e+00  1.800000e+00  1.800000e+00  0.000000e+00  0.000000e+00  0.000000e+00  0.000000e+00  0.000000e+00  9.694844e-01  0.000000e+00  3.997343e-07  9.996175e-07  1.181464e-09  1.679122e-05 -1.768252e-11  9.694842e-01  5.500000e+01 
 0.000000e+00  0.000000e+00  0.000000e+00  0.000000e+00  1.800000e+00  1.800000e+00  1.800000e+00  0.000000e+00  0.000000e+00  0.000000e+00  0.000000e+00  0.000000e+00  9.787450e-01  0.000000e+00  3.997356e-07  9.996190e-07  7.144737e-09  1.611909e-05 -4.741283e-11  9.787446e-01  5.600000e+01 
 0.000000e+00  1.800000e+00  0.000000e+00  0.000000e+00  1.800000e+00  1.800000e+00  1.800000e+00  0.000000e+00  0.000000e+00  0.000000e+00  0.000000e+00  0.000000e+00  9.880246e-01  0.000000e+00  3.997343e-07  9.996175e-07  2.852911e-09  1.675123e-05  3.885873e-12  9.880247e-01  5.700000e+01 
 0.000000e+00  0.000000e+00  1.800000e+00  0.000000e+00  1.800000e+00  1.800000e+00  1.800000e+00  0.000000e+00  0.000000e+00  0.000000e+00  0.000000e+00  0.000000e+00  9.967626e-01  0.000000e+00  3.997343e-07  9.996175e-07  1.179559e-09  1.674786e-05 -1.496672e-11  9.967624e-01  5.800000e+01 
 0.000000e+00  1.800000e+00  1.800000e+00  0.000000e+00  1.800000e+00  1.800000e+00  1.800000e+00  0.000000e+00  0.000000e+00  0.000000e+00  0.000000e+00  0.000000e+00  1.005501e+00  0.000000e+00  3.997343e-07  9.996174e-07  2.985661e-09  1.677891e-05 -9.408575e-13  1.005501e+00  5.900000e+01 
 0.000000e+00  0.000000e+00  0.000000e+00  1.800000e+00  1.800000e+00  1.800000e+00  1.800000e+00  0.000000e+00  0.000000e+00  0.000000e+00  0.000000e+00  0.000000e+00  1.014239e+00  0.000000e+00  3.997343e-07  9.996175e-07  3.232575e-09  1.677180e-05 -2.952508e-14  1.014239e+00  6.000000e+01 
 0.000000e+00  1.800000e+00  0.000000e+00  1.800000e+00  1.800000e+00  1.800000e+00  1.800000e+00  0.000000e+00  0.000000e+00  0.000000e+00  0.000000e+00  0.000000e+00  1.022977e+00  0.000000e+00  3.997349e-07  9.996191e-07 -2.669435e-08  1.805411e-05  2.121905e-10  1.022979e+00  6.100000e+01 
 0.000000e+00  0.000000e+00  1.800000e+00  1.800000e+00  1.800000e+00  1.800000e+00  1.800000e+00  0.000000e+00  0.000000e+00  0.000000e+00  0.000000e+00  0.000000e+00  1.031715e+00  0.000000e+00  3.997343e-07  9.996175e-07  3.219178e-09  1.677067e-05  2.158679e-11  1.031715e+00  6.200000e+01 
 0.000000e+00  1.800000e+00  1.800000e+00  1.800000e+00  1.800000e+00  1.800000e+00  1.800000e+00  0.000000e+00  0.000000e+00  0.000000e+00  0.000000e+00  0.000000e+00  1.040453e+00  0.000000e+00  3.997343e-07  9.996175e-07  3.200233e-09  1.676833e-05  5.007177e-12  1.040453e+00  6.300000e+01 
 0.000000e+00  0.000000e+00  0.000000e+00  0.000000e+00  0.000000e+00  0.000000e+00  0.000000e+00  1.800000e+00  0.000000e+00  0.000000e+00  0.000000e+00  0.000000e+00  1.048756e+00  0.000000e+00  3.997343e-07  9.996174e-07  3.645680e-09  1.676809e-05 -5.828058e-11  1.048756e+00  6.400000e+01 
 0.000000e+00  1.800000e+00  0.000000e+00  0.000000e+00  0.000000e+00  0.000000e+00  0.000000e+00  1.800000e+00  0.000000e+00  0.000000e+00  0.000000e+00  0.000000e+00  1.054058e+00  0.000000e+00  3.997343e-07  9.996175e-07  3.335742e-09  1.678245e-05  7.801133e-11  1.054059e+00  6.500000e+01 
