 v-sweep       voutval       vloadval      ir1           ir2           ivdd          ivdda         ivddh         ndata         vd9           vd8           vd7           vd6           vd5           vd4           vd3           vd2           vd1           vd0          
 5.000000e+00  3.156681e-04  3.156681e-04  5.131501e-07  1.018756e-06  2.343533e-10  9.096424e-06  9.053073e-10  0.000000e+00  0.000000e+00  0.000000e+00  0.000000e+00  0.000000e+00  0.000000e+00  0.000000e+00  0.000000e+00  0.000000e+00  0.000000e+00  0.000000e+00 
 5.000000e+00  5.139348e-02  5.139348e-02  5.131501e-07  1.018756e-06  2.343531e-10  9.195868e-06  9.042735e-10  1.000000e+00  0.000000e+00  0.000000e+00  0.000000e+00  0.000000e+00  0.000000e+00  0.000000e+00  0.000000e+00  0.000000e+00  0.000000e+00  1.800000e+00 
 5.000000e+00  9.731672e-02  9.731672e-02  5.131501e-07  1.018756e-06  2.343554e-10  9.220508e-06  9.030123e-10  2.000000e+00  0.000000e+00  0.000000e+00  0.000000e+00  0.000000e+00  0.000000e+00  0.000000e+00  0.000000e+00  0.000000e+00  1.800000e+00  0.000000e+00 
 5.000000e+00  1.385450e-01  1.385450e-01  5.131501e-07  1.018756e-06  2.343543e-10  9.227931e-06  9.021063e-10  3.000000e+00  0.000000e+00  0.000000e+00  0.000000e+00  0.000000e+00  0.000000e+00  0.000000e+00  0.000000e+00  0.000000e+00  1.800000e+00  1.800000e+00 
 5.000000e+00  1.764932e-01  1.764932e-01  5.131501e-07  1.018756e-06  2.343501e-10  9.231231e-06  9.012466e-10  4.000000e+00  0.000000e+00  0.000000e+00  0.000000e+00  0.000000e+00  0.000000e+00  0.000000e+00  0.000000e+00  1.800000e+00  0.000000e+00  0.000000e+00 
 5.000000e+00  2.120952e-01  2.120952e-01  5.131501e-07  1.018756e-06  2.343553e-10  9.233146e-06  9.003229e-10  5.000000e+00  0.000000e+00  0.000000e+00  0.000000e+00  0.000000e+00  0.000000e+00  0.000000e+00  0.000000e+00  1.800000e+00  0.000000e+00  1.800000e+00 
 5.000000e+00  2.453571e-01  2.453571e-01  5.131501e-07  1.018756e-06  2.343553e-10  9.234464e-06  8.992713e-10  6.000000e+00  0.000000e+00  0.000000e+00  0.000000e+00  0.000000e+00  0.000000e+00  0.000000e+00  0.000000e+00  1.800000e+00  1.800000e+00  0.000000e+00 
 5.000000e+00  2.749786e-01  2.749786e-01  5.131501e-07  1.018756e-06  2.343553e-10  9.235473e-06  8.990403e-10  7.000000e+00  0.000000e+00  0.000000e+00  0.000000e+00  0.000000e+00  0.000000e+00  0.000000e+00  0.000000e+00  1.800000e+00  1.800000e+00  1.800000e+00 
 5.000000e+00  3.031960e-01  3.031960e-01  5.131501e-07  1.018756e-06  2.343534e-10  9.236421e-06  8.963261e-10  8.000000e+00  0.000000e+00  0.000000e+00  0.000000e+00  0.000000e+00  0.000000e+00  0.000000e+00  1.800000e+00  0.000000e+00  0.000000e+00  0.000000e+00 
 5.000000e+00  3.300074e-01  3.300074e-01  5.131501e-07  1.018756e-06  2.343537e-10  9.237418e-06  8.957256e-10  9.000000e+00  0.000000e+00  0.000000e+00  0.000000e+00  0.000000e+00  0.000000e+00  0.000000e+00  1.800000e+00  0.000000e+00  0.000000e+00  1.800000e+00 
 5.000000e+00  3.554151e-01  3.554151e-01  5.131501e-07  1.018756e-06  2.343550e-10  9.238570e-06  8.956688e-10  1.000000e+01  0.000000e+00  0.000000e+00  0.000000e+00  0.000000e+00  0.000000e+00  0.000000e+00  1.800000e+00  0.000000e+00  1.800000e+00  0.000000e+00 
 5.000000e+00  3.798862e-01  3.798862e-01  5.131501e-07  1.018756e-06  2.343562e-10  9.240012e-06  8.946314e-10  1.100000e+01  0.000000e+00  0.000000e+00  0.000000e+00  0.000000e+00  0.000000e+00  0.000000e+00  1.800000e+00  0.000000e+00  1.800000e+00  1.800000e+00 
 5.000000e+00  4.034205e-01  4.034205e-01  5.131501e-07  1.018756e-06  2.343556e-10  9.241883e-06  8.940026e-10  1.200000e+01  0.000000e+00  0.000000e+00  0.000000e+00  0.000000e+00  0.000000e+00  0.000000e+00  1.800000e+00  1.800000e+00  0.000000e+00  0.000000e+00 
 5.000000e+00  4.260183e-01  4.260183e-01  5.131501e-07  1.018756e-06  2.343566e-10  9.244351e-06  8.930398e-10  1.300000e+01  0.000000e+00  0.000000e+00  0.000000e+00  0.000000e+00  0.000000e+00  0.000000e+00  1.800000e+00  1.800000e+00  0.000000e+00  1.800000e+00 
 5.000000e+00  4.481463e-01  4.481463e-01  5.131501e-07  1.018756e-06  2.343541e-10  9.247687e-06  8.914162e-10  1.400000e+01  0.000000e+00  0.000000e+00  0.000000e+00  0.000000e+00  0.000000e+00  0.000000e+00  1.800000e+00  1.800000e+00  1.800000e+00  0.000000e+00 
 5.000000e+00  4.693405e-01  4.693405e-01  5.131501e-07  1.018756e-06  2.343552e-10  9.252073e-06  8.909863e-10  1.500000e+01  0.000000e+00  0.000000e+00  0.000000e+00  0.000000e+00  0.000000e+00  0.000000e+00  1.800000e+00  1.800000e+00  1.800000e+00  1.800000e+00 
 5.000000e+00  4.900631e-01  4.900631e-01  5.131501e-07  1.018756e-06  2.350726e-10  9.257897e-06  8.579843e-10  1.600000e+01  0.000000e+00  0.000000e+00  0.000000e+00  0.000000e+00  0.000000e+00  1.800000e+00  0.000000e+00  0.000000e+00  0.000000e+00  0.000000e+00 
 5.000000e+00  5.098508e-01  5.098508e-01  5.131501e-07  1.018756e-06  2.350724e-10  9.265343e-06  8.577960e-10  1.700000e+01  0.000000e+00  0.000000e+00  0.000000e+00  0.000000e+00  0.000000e+00  1.800000e+00  0.000000e+00  0.000000e+00  0.000000e+00  1.800000e+00 
 5.000000e+00  5.296385e-01  5.296385e-01  5.131501e-07  1.018756e-06  2.350732e-10  9.275165e-06  8.571885e-10  1.800000e+01  0.000000e+00  0.000000e+00  0.000000e+00  0.000000e+00  0.000000e+00  1.800000e+00  0.000000e+00  0.000000e+00  1.800000e+00  0.000000e+00 
 5.000000e+00  5.484896e-01  5.484896e-01  5.131501e-07  1.018756e-06  2.350747e-10  9.287286e-06  8.569327e-10  1.900000e+01  0.000000e+00  0.000000e+00  0.000000e+00  0.000000e+00  0.000000e+00  1.800000e+00  0.000000e+00  0.000000e+00  1.800000e+00  1.800000e+00 
 5.000000e+00  5.673407e-01  5.673407e-01  5.131501e-07  1.018756e-06  2.350734e-10  9.302699e-06  8.566023e-10  2.000000e+01  0.000000e+00  0.000000e+00  0.000000e+00  0.000000e+00  0.000000e+00  1.800000e+00  0.000000e+00  1.800000e+00  0.000000e+00  0.000000e+00 
 5.000000e+00  5.852554e-01  5.852554e-01  5.131501e-07  1.018756e-06  2.350753e-10  9.320951e-06  8.564709e-10  2.100000e+01  0.000000e+00  0.000000e+00  0.000000e+00  0.000000e+00  0.000000e+00  1.800000e+00  0.000000e+00  1.800000e+00  0.000000e+00  1.800000e+00 
 5.000000e+00  6.031702e-01  6.031702e-01  5.131501e-07  1.018756e-06  2.350744e-10  9.343204e-06  8.555116e-10  2.200000e+01  0.000000e+00  0.000000e+00  0.000000e+00  0.000000e+00  0.000000e+00  1.800000e+00  0.000000e+00  1.800000e+00  1.800000e+00  0.000000e+00 
 5.000000e+00  6.189782e-01  6.189782e-01  5.131501e-07  1.018756e-06  2.350745e-10  9.366510e-06  8.554441e-10  2.300000e+01  0.000000e+00  0.000000e+00  0.000000e+00  0.000000e+00  0.000000e+00  1.800000e+00  0.000000e+00  1.800000e+00  1.800000e+00  1.800000e+00 
 5.000000e+00  6.347860e-01  6.347860e-01  5.131501e-07  1.018756e-06  2.350743e-10  9.393460e-06  8.535008e-10  2.400000e+01  0.000000e+00  0.000000e+00  0.000000e+00  0.000000e+00  0.000000e+00  1.800000e+00  1.800000e+00  0.000000e+00  0.000000e+00  0.000000e+00 
 5.000000e+00  6.496572e-01  6.496572e-01  5.131501e-07  1.018756e-06  2.350757e-10  9.422208e-06  8.526482e-10  2.500000e+01  0.000000e+00  0.000000e+00  0.000000e+00  0.000000e+00  0.000000e+00  1.800000e+00  1.800000e+00  0.000000e+00  0.000000e+00  1.800000e+00 
 5.000000e+00  6.645286e-01  6.645286e-01  5.131501e-07  1.018756e-06  2.350740e-10  9.454178e-06  8.525238e-10  2.600000e+01  0.000000e+00  0.000000e+00  0.000000e+00  0.000000e+00  0.000000e+00  1.800000e+00  1.800000e+00  0.000000e+00  1.800000e+00  0.000000e+00 
 5.000000e+00  6.789324e-01  6.789324e-01  5.131501e-07  1.018756e-06  2.350734e-10  9.488013e-06  8.522254e-10  2.700000e+01  0.000000e+00  0.000000e+00  0.000000e+00  0.000000e+00  0.000000e+00  1.800000e+00  1.800000e+00  0.000000e+00  1.800000e+00  1.800000e+00 
 5.000000e+00  6.933362e-01  6.933362e-01  5.131501e-07  1.018756e-06  2.350739e-10  9.524302e-06  8.493441e-10  2.800000e+01  0.000000e+00  0.000000e+00  0.000000e+00  0.000000e+00  0.000000e+00  1.800000e+00  1.800000e+00  1.800000e+00  0.000000e+00  0.000000e+00 
 5.000000e+00  7.072724e-01  7.072724e-01  5.131501e-07  1.018756e-06  2.350751e-10  9.561265e-06  8.493726e-10  2.900000e+01  0.000000e+00  0.000000e+00  0.000000e+00  0.000000e+00  0.000000e+00  1.800000e+00  1.800000e+00  1.800000e+00  0.000000e+00  1.800000e+00 
 5.000000e+00  7.212086e-01  7.212086e-01  5.131501e-07  1.018756e-06  2.350783e-10  9.599443e-06  8.493157e-10  3.000000e+01  0.000000e+00  0.000000e+00  0.000000e+00  0.000000e+00  0.000000e+00  1.800000e+00  1.800000e+00  1.800000e+00  1.800000e+00  0.000000e+00 
 5.000000e+00  7.346770e-01  7.346770e-01  5.131501e-07  1.018756e-06  2.350753e-10  9.636843e-06  8.491772e-10  3.100000e+01  0.000000e+00  0.000000e+00  0.000000e+00  0.000000e+00  0.000000e+00  1.800000e+00  1.800000e+00  1.800000e+00  1.800000e+00  1.800000e+00 
 5.000000e+00  7.481430e-01  7.481430e-01  5.131501e-07  1.018756e-06  2.350748e-10  9.674021e-06  8.144543e-10  3.200000e+01  0.000000e+00  0.000000e+00  0.000000e+00  0.000000e+00  1.800000e+00  0.000000e+00  0.000000e+00  0.000000e+00  0.000000e+00  0.000000e+00 
 5.000000e+00  7.611419e-01  7.611419e-01  5.131501e-07  1.018756e-06  2.350763e-10  9.709039e-06  8.139925e-10  3.300000e+01  0.000000e+00  0.000000e+00  0.000000e+00  0.000000e+00  1.800000e+00  0.000000e+00  0.000000e+00  0.000000e+00  0.000000e+00  1.800000e+00 
 5.000000e+00  7.741408e-01  7.741408e-01  5.131501e-07  1.018756e-06  2.350738e-10  9.742586e-06  8.138220e-10  3.400000e+01  0.000000e+00  0.000000e+00  0.000000e+00  0.000000e+00  1.800000e+00  0.000000e+00  0.000000e+00  0.000000e+00  1.800000e+00  0.000000e+00 
 5.000000e+00  7.871396e-01  7.871396e-01  5.131501e-07  1.018756e-06  2.350773e-10  9.774108e-06  8.135342e-10  3.500000e+01  0.000000e+00  0.000000e+00  0.000000e+00  0.000000e+00  1.800000e+00  0.000000e+00  0.000000e+00  0.000000e+00  1.800000e+00  1.800000e+00 
 5.000000e+00  7.996703e-01  7.996703e-01  5.131501e-07  1.018756e-06  2.350738e-10  9.802158e-06  8.136159e-10  3.600000e+01  0.000000e+00  0.000000e+00  0.000000e+00  0.000000e+00  1.800000e+00  0.000000e+00  0.000000e+00  1.800000e+00  0.000000e+00  0.000000e+00 
 5.000000e+00  8.117331e-01  8.117331e-01  5.131501e-07  1.018756e-06  2.350757e-10  9.826714e-06  8.126176e-10  3.700000e+01  0.000000e+00  0.000000e+00  0.000000e+00  0.000000e+00  1.800000e+00  0.000000e+00  0.000000e+00  1.800000e+00  0.000000e+00  1.800000e+00 
 5.000000e+00  8.242636e-01  8.242636e-01  5.131501e-07  1.018756e-06  2.350772e-10  9.849504e-06  8.125714e-10  3.800000e+01  0.000000e+00  0.000000e+00  0.000000e+00  0.000000e+00  1.800000e+00  0.000000e+00  0.000000e+00  1.800000e+00  1.800000e+00  0.000000e+00 
 5.000000e+00  8.363262e-01  8.363262e-01  5.131501e-07  1.018756e-06  2.350769e-10  9.868767e-06  8.121344e-10  3.900000e+01  0.000000e+00  0.000000e+00  0.000000e+00  0.000000e+00  1.800000e+00  0.000000e+00  0.000000e+00  1.800000e+00  1.800000e+00  1.800000e+00 
 5.000000e+00  8.479189e-01  8.479189e-01  5.131501e-07  1.018756e-06  2.350762e-10  9.884848e-06  8.056969e-10  4.000000e+01  0.000000e+00  0.000000e+00  0.000000e+00  0.000000e+00  1.800000e+00  0.000000e+00  1.800000e+00  0.000000e+00  0.000000e+00  0.000000e+00 
 5.000000e+00  8.599813e-01  8.599813e-01  5.131501e-07  1.018756e-06  2.350759e-10  9.899155e-06  8.053558e-10  4.100000e+01  0.000000e+00  0.000000e+00  0.000000e+00  0.000000e+00  1.800000e+00  0.000000e+00  1.800000e+00  0.000000e+00  0.000000e+00  1.800000e+00 
 5.000000e+00  8.715742e-01  8.715742e-01  5.131501e-07  1.018756e-06  2.350758e-10  9.910745e-06  8.048940e-10  4.200000e+01  0.000000e+00  0.000000e+00  0.000000e+00  0.000000e+00  1.800000e+00  0.000000e+00  1.800000e+00  0.000000e+00  1.800000e+00  0.000000e+00 
 5.000000e+00  8.826992e-01  8.826992e-01  5.131501e-07  1.018756e-06  2.350755e-10  9.920049e-06  8.048940e-10  4.300000e+01  0.000000e+00  0.000000e+00  0.000000e+00  0.000000e+00  1.800000e+00  0.000000e+00  1.800000e+00  0.000000e+00  1.800000e+00  1.800000e+00 
 5.000000e+00  8.942920e-01  8.942920e-01  5.131501e-07  1.018756e-06  2.350758e-10  9.928047e-06  8.036257e-10  4.400000e+01  0.000000e+00  0.000000e+00  0.000000e+00  0.000000e+00  1.800000e+00  0.000000e+00  1.800000e+00  1.800000e+00  0.000000e+00  0.000000e+00 
 5.000000e+00  9.054169e-01  9.054169e-01  5.131501e-07  1.018756e-06  2.350728e-10  9.934287e-06  8.036257e-10  4.500000e+01  0.000000e+00  0.000000e+00  0.000000e+00  0.000000e+00  1.800000e+00  0.000000e+00  1.800000e+00  1.800000e+00  0.000000e+00  1.800000e+00 
 5.000000e+00  9.165417e-01  9.165417e-01  5.131501e-07  1.018756e-06  2.350807e-10  9.939302e-06  8.034907e-10  4.600000e+01  0.000000e+00  0.000000e+00  0.000000e+00  0.000000e+00  1.800000e+00  0.000000e+00  1.800000e+00  1.800000e+00  1.800000e+00  0.000000e+00 
 5.000000e+00  9.276665e-01  9.276665e-01  5.131501e-07  1.018756e-06  2.350785e-10  9.943256e-06  8.034480e-10  4.700000e+01  0.000000e+00  0.000000e+00  0.000000e+00  0.000000e+00  1.800000e+00  0.000000e+00  1.800000e+00  1.800000e+00  1.800000e+00  1.800000e+00 
 5.000000e+00  9.383212e-01  9.383212e-01  5.131501e-07  1.018756e-06  2.357935e-10  9.946183e-06  7.648248e-10  4.800000e+01  0.000000e+00  0.000000e+00  0.000000e+00  0.000000e+00  1.800000e+00  1.800000e+00  0.000000e+00  0.000000e+00  0.000000e+00  0.000000e+00 
 5.000000e+00  9.494459e-01  9.494459e-01  5.131501e-07  1.018756e-06  2.357946e-10  9.948485e-06  7.639828e-10  4.900000e+01  0.000000e+00  0.000000e+00  0.000000e+00  0.000000e+00  1.800000e+00  1.800000e+00  0.000000e+00  0.000000e+00  0.000000e+00  1.800000e+00 
 5.000000e+00  9.601026e-01  9.601026e-01  5.131501e-07  1.018756e-06  2.357940e-10  9.950069e-06  7.635707e-10  5.000000e+01  0.000000e+00  0.000000e+00  0.000000e+00  0.000000e+00  1.800000e+00  1.800000e+00  0.000000e+00  0.000000e+00  1.800000e+00  0.000000e+00 
 5.000000e+00  9.702915e-01  9.702915e-01  5.131501e-07  1.018756e-06  2.357962e-10  9.951108e-06  7.634321e-10  5.100000e+01  0.000000e+00  0.000000e+00  0.000000e+00  0.000000e+00  1.800000e+00  1.800000e+00  0.000000e+00  0.000000e+00  1.800000e+00  1.800000e+00 
 5.000000e+00  9.809482e-01  9.809482e-01  5.131501e-07  1.018756e-06  2.357942e-10  9.951780e-06  7.614746e-10  5.200000e+01  0.000000e+00  0.000000e+00  0.000000e+00  0.000000e+00  1.800000e+00  1.800000e+00  0.000000e+00  1.800000e+00  0.000000e+00  0.000000e+00 
 5.000000e+00  9.911371e-01  9.911371e-01  5.131501e-07  1.018756e-06  2.357949e-10  9.952084e-06  7.614888e-10  5.300000e+01  0.000000e+00  0.000000e+00  0.000000e+00  0.000000e+00  1.800000e+00  1.800000e+00  0.000000e+00  1.800000e+00  0.000000e+00  1.800000e+00 
 5.000000e+00  1.001326e+00  1.001326e+00  5.131501e-07  1.018756e-06  2.357953e-10  9.952122e-06  7.610731e-10  5.400000e+01  0.000000e+00  0.000000e+00  0.000000e+00  0.000000e+00  1.800000e+00  1.800000e+00  0.000000e+00  1.800000e+00  1.800000e+00  0.000000e+00 
 5.000000e+00  1.011515e+00  1.011515e+00  5.131501e-07  1.018756e-06  2.357969e-10  9.951939e-06  7.605366e-10  5.500000e+01  0.000000e+00  0.000000e+00  0.000000e+00  0.000000e+00  1.800000e+00  1.800000e+00  0.000000e+00  1.800000e+00  1.800000e+00  1.800000e+00 
 5.000000e+00  1.021703e+00  1.021703e+00  5.131501e-07  1.018756e-06  2.357952e-10  9.951578e-06  7.556019e-10  5.600000e+01  0.000000e+00  0.000000e+00  0.000000e+00  0.000000e+00  1.800000e+00  1.800000e+00  1.800000e+00  0.000000e+00  0.000000e+00  0.000000e+00 
 5.000000e+00  1.031892e+00  1.031892e+00  5.131501e-07  1.018756e-06  2.357947e-10  9.951071e-06  7.539925e-10  5.700000e+01  0.000000e+00  0.000000e+00  0.000000e+00  0.000000e+00  1.800000e+00  1.800000e+00  1.800000e+00  0.000000e+00  0.000000e+00  1.800000e+00 
 5.000000e+00  1.041612e+00  1.041612e+00  5.131501e-07  1.018756e-06  2.357943e-10  9.950482e-06  7.535449e-10  5.800000e+01  0.000000e+00  0.000000e+00  0.000000e+00  0.000000e+00  1.800000e+00  1.800000e+00  1.800000e+00  0.000000e+00  1.800000e+00  0.000000e+00 
 5.000000e+00  1.051331e+00  1.051331e+00  5.131501e-07  1.018756e-06  2.357973e-10  9.949808e-06  7.530049e-10  5.900000e+01  0.000000e+00  0.000000e+00  0.000000e+00  0.000000e+00  1.800000e+00  1.800000e+00  1.800000e+00  0.000000e+00  1.800000e+00  1.800000e+00 
 5.000000e+00  1.061051e+00  1.061051e+00  5.131501e-07  1.018756e-06  2.357955e-10  9.949065e-06  7.514595e-10  6.000000e+01  0.000000e+00  0.000000e+00  0.000000e+00  0.000000e+00  1.800000e+00  1.800000e+00  1.800000e+00  1.800000e+00  0.000000e+00  0.000000e+00 
 5.000000e+00  1.070771e+00  1.070771e+00  5.131501e-07  1.018756e-06  2.357975e-10  9.948270e-06  7.509017e-10  6.100000e+01  0.000000e+00  0.000000e+00  0.000000e+00  0.000000e+00  1.800000e+00  1.800000e+00  1.800000e+00  1.800000e+00  0.000000e+00  1.800000e+00 
 5.000000e+00  1.080490e+00  1.080490e+00  5.131501e-07  1.018756e-06  2.357974e-10  9.947433e-06  7.507844e-10  6.200000e+01  0.000000e+00  0.000000e+00  0.000000e+00  0.000000e+00  1.800000e+00  1.800000e+00  1.800000e+00  1.800000e+00  1.800000e+00  0.000000e+00 
 5.000000e+00  1.090210e+00  1.090210e+00  5.131501e-07  1.018756e-06  2.357961e-10  9.946564e-06  7.502657e-10  6.300000e+01  0.000000e+00  0.000000e+00  0.000000e+00  0.000000e+00  1.800000e+00  1.800000e+00  1.800000e+00  1.800000e+00  1.800000e+00  1.800000e+00 
 5.000000e+00  1.099479e+00  1.099479e+00  5.131501e-07  1.018756e-06  2.411330e-10  9.945710e-06  9.147456e-10  6.400000e+01  0.000000e+00  0.000000e+00  0.000000e+00  1.800000e+00  0.000000e+00  0.000000e+00  0.000000e+00  0.000000e+00  0.000000e+00  0.000000e+00 
 5.000000e+00  1.104691e+00  1.104691e+00  5.131501e-07  1.018756e-06  2.411332e-10  9.945348e-06  9.144472e-10  6.500000e+01  0.000000e+00  0.000000e+00  0.000000e+00  1.800000e+00  0.000000e+00  0.000000e+00  0.000000e+00  0.000000e+00  0.000000e+00  1.800000e+00 
 5.000000e+00  1.110378e+00  1.110378e+00  5.131501e-07  1.018756e-06  2.411348e-10  9.944980e-06  9.142412e-10  6.600000e+01  0.000000e+00  0.000000e+00  0.000000e+00  1.800000e+00  0.000000e+00  0.000000e+00  0.000000e+00  0.000000e+00  1.800000e+00  0.000000e+00 
 5.000000e+00  1.116680e+00  1.116680e+00  5.131501e-07  1.018756e-06  2.411371e-10  9.944079e-06  9.139214e-10  6.700000e+01  0.000000e+00  0.000000e+00  0.000000e+00  1.800000e+00  0.000000e+00  0.000000e+00  0.000000e+00  0.000000e+00  1.800000e+00  1.800000e+00 
 5.000000e+00  1.123340e+00  1.123340e+00  5.131501e-07  1.018756e-06  2.411358e-10  9.944094e-06  9.141772e-10  6.800000e+01  0.000000e+00  0.000000e+00  0.000000e+00  1.800000e+00  0.000000e+00  0.000000e+00  0.000000e+00  1.800000e+00  0.000000e+00  0.000000e+00 
 5.000000e+00  1.130886e+00  1.130886e+00  5.131501e-07  1.018756e-06  2.411369e-10  9.942629e-06  9.138575e-10  6.900000e+01  0.000000e+00  0.000000e+00  0.000000e+00  1.800000e+00  0.000000e+00  0.000000e+00  0.000000e+00  1.800000e+00  0.000000e+00  1.800000e+00 
 5.000000e+00  1.138941e+00  1.138941e+00  5.131501e-07  1.018756e-06  2.411340e-10  9.941296e-06  9.138006e-10  7.000000e+01  0.000000e+00  0.000000e+00  0.000000e+00  1.800000e+00  0.000000e+00  0.000000e+00  0.000000e+00  1.800000e+00  1.800000e+00  0.000000e+00 
 5.000000e+00  1.147616e+00  1.147616e+00  5.131501e-07  1.018756e-06  2.411359e-10  9.939297e-06  9.135590e-10  7.100000e+01  0.000000e+00  0.000000e+00  0.000000e+00  1.800000e+00  0.000000e+00  0.000000e+00  0.000000e+00  1.800000e+00  1.800000e+00  1.800000e+00 
 5.000000e+00  1.155081e+00  1.155081e+00  5.131501e-07  1.018756e-06  2.411331e-10  9.941515e-06  9.123405e-10  7.200000e+01  0.000000e+00  0.000000e+00  0.000000e+00  1.800000e+00  0.000000e+00  0.000000e+00  1.800000e+00  0.000000e+00  0.000000e+00  0.000000e+00 
