 v-sweep       d0            d1            d2            d3            d4            d5            d6            d7            d8            d9            load          v-sweep       vmeas#branch  vmeas1#branch vmeas2#branch vmeas3#branch vmeas5#branch vout          ndata        
 0.000000e+00  0.000000e+00  0.000000e+00  0.000000e+00  0.000000e+00  0.000000e+00  0.000000e+00  0.000000e+00  0.000000e+00  0.000000e+00  0.000000e+00  8.570286e-04  0.000000e+00  1.055565e-05  6.050489e-10  1.253236e-06  4.946628e-07 -5.135137e-21  8.570286e-04  0.000000e+00 
 0.000000e+00  1.800000e+00  0.000000e+00  0.000000e+00  0.000000e+00  0.000000e+00  0.000000e+00  0.000000e+00  0.000000e+00  0.000000e+00  0.000000e+00  5.257213e-02  0.000000e+00  1.064263e-05  6.050462e-10  1.253236e-06  4.946628e-07 -6.201869e-20  5.257213e-02  1.000000e+00 
 0.000000e+00  0.000000e+00  1.800000e+00  0.000000e+00  0.000000e+00  0.000000e+00  0.000000e+00  0.000000e+00  0.000000e+00  0.000000e+00  0.000000e+00  9.877975e-02  0.000000e+00  1.066749e-05  6.050464e-10  1.253236e-06  4.946628e-07  8.528563e-20  9.877975e-02  2.000000e+00 
 0.000000e+00  1.800000e+00  1.800000e+00  0.000000e+00  0.000000e+00  0.000000e+00  0.000000e+00  0.000000e+00  0.000000e+00  0.000000e+00  0.000000e+00  1.396068e-01  0.000000e+00  1.067490e-05  6.050454e-10  1.253236e-06  4.946628e-07  1.242359e-19  1.396068e-01  3.000000e+00 
 0.000000e+00  0.000000e+00  0.000000e+00  1.800000e+00  0.000000e+00  0.000000e+00  0.000000e+00  0.000000e+00  0.000000e+00  0.000000e+00  0.000000e+00  1.766724e-01  0.000000e+00  1.067829e-05  6.050468e-10  1.253236e-06  4.946628e-07  6.739868e-20  1.766724e-01  4.000000e+00 
 0.000000e+00  1.800000e+00  0.000000e+00  1.800000e+00  0.000000e+00  0.000000e+00  0.000000e+00  0.000000e+00  0.000000e+00  0.000000e+00  0.000000e+00  2.110513e-01  0.000000e+00  1.068047e-05  6.050441e-10  1.253236e-06  4.946628e-07 -9.846096e-20  2.110513e-01  5.000000e+00 
 0.000000e+00  0.000000e+00  1.800000e+00  1.800000e+00  0.000000e+00  0.000000e+00  0.000000e+00  0.000000e+00  0.000000e+00  0.000000e+00  0.000000e+00  2.427437e-01  0.000000e+00  1.068227e-05  6.050456e-10  1.253236e-06  4.946628e-07 -1.655552e-19  2.427437e-01  6.000000e+00 
 0.000000e+00  1.800000e+00  1.800000e+00  1.800000e+00  0.000000e+00  0.000000e+00  0.000000e+00  0.000000e+00  0.000000e+00  0.000000e+00  0.000000e+00  2.722874e-01  0.000000e+00  1.068416e-05  6.050436e-10  1.253236e-06  4.946628e-07 -1.459676e-19  2.722874e-01  7.000000e+00 
 0.000000e+00  0.000000e+00  0.000000e+00  0.000000e+00  1.800000e+00  0.000000e+00  0.000000e+00  0.000000e+00  0.000000e+00  0.000000e+00  0.000000e+00  3.002199e-01  0.000000e+00  1.068646e-05  6.050451e-10  1.253236e-06  4.946628e-07  4.107448e-20  3.002199e-01  8.000000e+00 
 0.000000e+00  1.800000e+00  0.000000e+00  0.000000e+00  1.800000e+00  0.000000e+00  0.000000e+00  0.000000e+00  0.000000e+00  0.000000e+00  0.000000e+00  3.265407e-01  0.000000e+00  1.068946e-05  6.050450e-10  1.253236e-06  4.946628e-07 -2.124994e-19  3.265407e-01  9.000000e+00 
 0.000000e+00  0.000000e+00  1.800000e+00  0.000000e+00  1.800000e+00  0.000000e+00  0.000000e+00  0.000000e+00  0.000000e+00  0.000000e+00  0.000000e+00  3.512505e-01  0.000000e+00  1.069347e-05  6.050453e-10  1.253236e-06  4.946628e-07  2.186404e-20  3.512505e-01  1.000000e+01 
 0.000000e+00  1.800000e+00  1.800000e+00  0.000000e+00  1.800000e+00  0.000000e+00  0.000000e+00  0.000000e+00  0.000000e+00  0.000000e+00  0.000000e+00  3.748848e-01  0.000000e+00  1.069892e-05  6.050439e-10  1.253236e-06  4.946628e-07  5.599285e-19  3.748848e-01  1.100000e+01 
 0.000000e+00  0.000000e+00  0.000000e+00  1.800000e+00  1.800000e+00  0.000000e+00  0.000000e+00  0.000000e+00  0.000000e+00  0.000000e+00  0.000000e+00  3.974446e-01  0.000000e+00  1.070627e-05  6.050445e-10  1.253236e-06  4.946628e-07  3.709541e-19  3.974446e-01  1.200000e+01 
 0.000000e+00  1.800000e+00  0.000000e+00  1.800000e+00  1.800000e+00  0.000000e+00  0.000000e+00  0.000000e+00  0.000000e+00  0.000000e+00  0.000000e+00  4.189301e-01  0.000000e+00  1.071597e-05  6.050451e-10  1.253236e-06  4.946628e-07 -6.778249e-20  4.189301e-01  1.300000e+01 
 0.000000e+00  0.000000e+00  1.800000e+00  1.800000e+00  1.800000e+00  0.000000e+00  0.000000e+00  0.000000e+00  0.000000e+00  0.000000e+00  0.000000e+00  4.398788e-01  0.000000e+00  1.072887e-05  6.050457e-10  1.253236e-06  4.946628e-07 -5.027802e-19  4.398788e-01  1.400000e+01 
 0.000000e+00  1.800000e+00  1.800000e+00  1.800000e+00  1.800000e+00  0.000000e+00  0.000000e+00  0.000000e+00  0.000000e+00  0.000000e+00  0.000000e+00  4.597531e-01  0.000000e+00  1.074518e-05  6.050419e-10  1.253236e-06  4.946628e-07 -4.240194e-19  4.597531e-01  1.500000e+01 
 0.000000e+00  0.000000e+00  0.000000e+00  0.000000e+00  0.000000e+00  1.800000e+00  0.000000e+00  0.000000e+00  0.000000e+00  0.000000e+00  0.000000e+00  4.790892e-01  0.000000e+00  1.076582e-05  6.092797e-10  1.253236e-06  4.946628e-07 -4.099507e-20  4.790892e-01  1.600000e+01 
 0.000000e+00  1.800000e+00  0.000000e+00  0.000000e+00  0.000000e+00  1.800000e+00  0.000000e+00  0.000000e+00  0.000000e+00  0.000000e+00  0.000000e+00  4.973515e-01  0.000000e+00  1.079061e-05  6.092805e-10  1.253236e-06  4.946628e-07 -3.611404e-19  4.973515e-01  1.700000e+01 
 0.000000e+00  0.000000e+00  1.800000e+00  0.000000e+00  0.000000e+00  1.800000e+00  0.000000e+00  0.000000e+00  0.000000e+00  0.000000e+00  0.000000e+00  5.156138e-01  0.000000e+00  1.082133e-05  6.092801e-10  1.253236e-06  4.946628e-07 -5.946833e-19  5.156138e-01  1.800000e+01 
 0.000000e+00  1.800000e+00  1.800000e+00  0.000000e+00  0.000000e+00  1.800000e+00  0.000000e+00  0.000000e+00  0.000000e+00  0.000000e+00  0.000000e+00  5.328021e-01  0.000000e+00  1.085629e-05  6.092819e-10  1.253236e-06  4.946628e-07  3.670300e-19  5.328021e-01  1.900000e+01 
 0.000000e+00  0.000000e+00  0.000000e+00  1.800000e+00  0.000000e+00  1.800000e+00  0.000000e+00  0.000000e+00  0.000000e+00  0.000000e+00  0.000000e+00  5.499906e-01  0.000000e+00  1.089747e-05  6.092784e-10  1.253236e-06  4.946628e-07  1.737741e-19  5.499906e-01  2.000000e+01 
 0.000000e+00  1.800000e+00  0.000000e+00  1.800000e+00  0.000000e+00  1.800000e+00  0.000000e+00  0.000000e+00  0.000000e+00  0.000000e+00  0.000000e+00  5.661055e-01  0.000000e+00  1.094181e-05  6.092781e-10  1.253236e-06  4.946628e-07 -9.225777e-19  5.661055e-01  2.100000e+01 
 0.000000e+00  0.000000e+00  1.800000e+00  1.800000e+00  0.000000e+00  1.800000e+00  0.000000e+00  0.000000e+00  0.000000e+00  0.000000e+00  0.000000e+00  5.822209e-01  0.000000e+00  1.099143e-05  6.092781e-10  1.253236e-06  4.946628e-07  2.098789e-19  5.822209e-01  2.200000e+01 
 0.000000e+00  1.800000e+00  1.800000e+00  1.800000e+00  0.000000e+00  1.800000e+00  0.000000e+00  0.000000e+00  0.000000e+00  0.000000e+00  0.000000e+00  5.977991e-01  0.000000e+00  1.104390e-05  6.092759e-10  1.253236e-06  4.946628e-07  4.676945e-19  5.977991e-01  2.300000e+01 
 0.000000e+00  0.000000e+00  0.000000e+00  0.000000e+00  1.800000e+00  1.800000e+00  0.000000e+00  0.000000e+00  0.000000e+00  0.000000e+00  0.000000e+00  6.133773e-01  0.000000e+00  1.109992e-05  6.092767e-10  1.253236e-06  4.946628e-07 -3.391176e-19  6.133773e-01  2.400000e+01 
 0.000000e+00  1.800000e+00  0.000000e+00  0.000000e+00  1.800000e+00  1.800000e+00  0.000000e+00  0.000000e+00  0.000000e+00  0.000000e+00  0.000000e+00  6.278820e-01  0.000000e+00  1.115423e-05  6.092772e-10  1.253236e-06  4.946628e-07  1.378017e-19  6.278820e-01  2.500000e+01 
 0.000000e+00  0.000000e+00  1.800000e+00  0.000000e+00  1.800000e+00  1.800000e+00  0.000000e+00  0.000000e+00  0.000000e+00  0.000000e+00  0.000000e+00  6.423870e-01  0.000000e+00  1.120937e-05  6.092759e-10  1.253236e-06  4.946628e-07 -1.359753e-19  6.423870e-01  2.600000e+01 
 0.000000e+00  1.800000e+00  1.800000e+00  0.000000e+00  1.800000e+00  1.800000e+00  0.000000e+00  0.000000e+00  0.000000e+00  0.000000e+00  0.000000e+00  6.563544e-01  0.000000e+00  1.126195e-05  6.092765e-10  1.253236e-06  4.946628e-07 -1.710424e-18  6.563544e-01  2.700000e+01 
 0.000000e+00  0.000000e+00  0.000000e+00  1.800000e+00  1.800000e+00  1.800000e+00  0.000000e+00  0.000000e+00  0.000000e+00  0.000000e+00  0.000000e+00  6.703217e-01  0.000000e+00  1.131265e-05  6.092772e-10  1.253236e-06  4.946628e-07  9.781245e-19  6.703217e-01  2.800000e+01 
 0.000000e+00  1.800000e+00  0.000000e+00  1.800000e+00  1.800000e+00  1.800000e+00  0.000000e+00  0.000000e+00  0.000000e+00  0.000000e+00  0.000000e+00  6.837524e-01  0.000000e+00  1.135844e-05  6.092759e-10  1.253236e-06  4.946628e-07  1.927529e-18  6.837524e-01  2.900000e+01 
 0.000000e+00  0.000000e+00  1.800000e+00  1.800000e+00  1.800000e+00  1.800000e+00  0.000000e+00  0.000000e+00  0.000000e+00  0.000000e+00  0.000000e+00  6.971831e-01  0.000000e+00  1.140030e-05  6.092786e-10  1.253236e-06  4.946628e-07 -9.222071e-19  6.971831e-01  3.000000e+01 
 0.000000e+00  1.800000e+00  1.800000e+00  1.800000e+00  1.800000e+00  1.800000e+00  0.000000e+00  0.000000e+00  0.000000e+00  0.000000e+00  0.000000e+00  7.100769e-01  0.000000e+00  1.143612e-05  6.092782e-10  1.253236e-06  4.946628e-07 -4.323759e-18  7.100769e-01  3.100000e+01 
 0.000000e+00  0.000000e+00  0.000000e+00  0.000000e+00  0.000000e+00  0.000000e+00  1.800000e+00  0.000000e+00  0.000000e+00  0.000000e+00  0.000000e+00  7.229671e-01  0.000000e+00  1.146728e-05  6.050468e-10  1.253236e-06  4.946628e-07  1.439427e-18  7.229671e-01  3.200000e+01 
 0.000000e+00  1.800000e+00  0.000000e+00  0.000000e+00  0.000000e+00  0.000000e+00  1.800000e+00  0.000000e+00  0.000000e+00  0.000000e+00  0.000000e+00  7.353227e-01  0.000000e+00  1.149279e-05  6.050453e-10  1.253236e-06  4.946628e-07  1.624715e-19  7.353227e-01  3.300000e+01 
 0.000000e+00  0.000000e+00  1.800000e+00  0.000000e+00  0.000000e+00  0.000000e+00  1.800000e+00  0.000000e+00  0.000000e+00  0.000000e+00  0.000000e+00  7.476782e-01  0.000000e+00  1.151419e-05  6.050450e-10  1.253236e-06  4.946628e-07  2.824048e-18  7.476782e-01  3.400000e+01 
 0.000000e+00  1.800000e+00  1.800000e+00  0.000000e+00  0.000000e+00  0.000000e+00  1.800000e+00  0.000000e+00  0.000000e+00  0.000000e+00  0.000000e+00  7.600335e-01  0.000000e+00  1.153183e-05  6.050449e-10  1.253236e-06  4.946628e-07 -1.117223e-18  7.600335e-01  3.500000e+01 
 0.000000e+00  0.000000e+00  0.000000e+00  1.800000e+00  0.000000e+00  0.000000e+00  1.800000e+00  0.000000e+00  0.000000e+00  0.000000e+00  0.000000e+00  7.718520e-01  0.000000e+00  1.154557e-05  6.050447e-10  1.253236e-06  4.946628e-07 -9.834053e-19  7.718520e-01  3.600000e+01 
 0.000000e+00  1.800000e+00  0.000000e+00  1.800000e+00  0.000000e+00  0.000000e+00  1.800000e+00  0.000000e+00  0.000000e+00  0.000000e+00  0.000000e+00  7.831328e-01  0.000000e+00  1.155619e-05  6.050433e-10  1.253236e-06  4.946628e-07  3.178451e-18  7.831328e-01  3.700000e+01 
 0.000000e+00  0.000000e+00  1.800000e+00  1.800000e+00  0.000000e+00  0.000000e+00  1.800000e+00  0.000000e+00  0.000000e+00  0.000000e+00  0.000000e+00  7.949511e-01  0.000000e+00  1.156509e-05  6.050436e-10  1.253236e-06  4.946628e-07 -4.488494e-18  7.949511e-01  3.800000e+01 
 0.000000e+00  1.800000e+00  1.800000e+00  1.800000e+00  0.000000e+00  0.000000e+00  1.800000e+00  0.000000e+00  0.000000e+00  0.000000e+00  0.000000e+00  8.062318e-01  0.000000e+00  1.157176e-05  6.050432e-10  1.253236e-06  4.946628e-07  4.251417e-18  8.062318e-01  3.900000e+01 
 0.000000e+00  0.000000e+00  0.000000e+00  0.000000e+00  1.800000e+00  0.000000e+00  1.800000e+00  0.000000e+00  0.000000e+00  0.000000e+00  0.000000e+00  8.169743e-01  0.000000e+00  1.157670e-05  6.050454e-10  1.253236e-06  4.946628e-07 -1.094883e-18  8.169743e-01  4.000000e+01 
 0.000000e+00  1.800000e+00  0.000000e+00  0.000000e+00  1.800000e+00  0.000000e+00  1.800000e+00  0.000000e+00  0.000000e+00  0.000000e+00  0.000000e+00  8.282548e-01  0.000000e+00  1.158065e-05  6.050426e-10  1.253236e-06  4.946628e-07  2.519619e-18  8.282548e-01  4.100000e+01 
 0.000000e+00  0.000000e+00  1.800000e+00  0.000000e+00  1.800000e+00  0.000000e+00  1.800000e+00  0.000000e+00  0.000000e+00  0.000000e+00  0.000000e+00  8.389976e-01  0.000000e+00  1.158341e-05  6.050426e-10  1.253236e-06  4.946628e-07  2.044393e-18  8.389976e-01  4.200000e+01 
 0.000000e+00  1.800000e+00  1.800000e+00  0.000000e+00  1.800000e+00  0.000000e+00  1.800000e+00  0.000000e+00  0.000000e+00  0.000000e+00  0.000000e+00  8.492038e-01  0.000000e+00  1.158526e-05  6.050417e-10  1.253236e-06  4.946628e-07 -4.788780e-19  8.492038e-01  4.300000e+01 
 0.000000e+00  0.000000e+00  0.000000e+00  1.800000e+00  1.800000e+00  0.000000e+00  1.800000e+00  0.000000e+00  0.000000e+00  0.000000e+00  0.000000e+00  8.599465e-01  0.000000e+00  1.158653e-05  6.050444e-10  1.253236e-06  4.946628e-07  1.475690e-20  8.599465e-01  4.400000e+01 
 0.000000e+00  1.800000e+00  0.000000e+00  1.800000e+00  1.800000e+00  0.000000e+00  1.800000e+00  0.000000e+00  0.000000e+00  0.000000e+00  0.000000e+00  8.701527e-01  0.000000e+00  1.158722e-05  6.050438e-10  1.253236e-06  4.946628e-07  9.330994e-19  8.701527e-01  4.500000e+01 
 0.000000e+00  0.000000e+00  1.800000e+00  1.800000e+00  1.800000e+00  0.000000e+00  1.800000e+00  0.000000e+00  0.000000e+00  0.000000e+00  0.000000e+00  8.803588e-01  0.000000e+00  1.158748e-05  6.050414e-10  1.253236e-06  4.946628e-07 -1.023520e-18  8.803588e-01  4.600000e+01 
 0.000000e+00  1.800000e+00  1.800000e+00  1.800000e+00  1.800000e+00  0.000000e+00  1.800000e+00  0.000000e+00  0.000000e+00  0.000000e+00  0.000000e+00  8.905650e-01  0.000000e+00  1.158740e-05  6.050410e-10  1.253236e-06  4.946628e-07 -1.218325e-18  8.905650e-01  4.700000e+01 
 0.000000e+00  0.000000e+00  0.000000e+00  0.000000e+00  0.000000e+00  1.800000e+00  1.800000e+00  0.000000e+00  0.000000e+00  0.000000e+00  0.000000e+00  9.002304e-01  0.000000e+00  1.158705e-05  6.092812e-10  1.253236e-06  4.946628e-07 -4.241253e-19  9.002304e-01  4.800000e+01 
 0.000000e+00  1.800000e+00  0.000000e+00  0.000000e+00  0.000000e+00  1.800000e+00  1.800000e+00  0.000000e+00  0.000000e+00  0.000000e+00  0.000000e+00  9.104365e-01  0.000000e+00  1.158648e-05  6.092812e-10  1.253236e-06  4.946628e-07  9.270776e-19  9.104365e-01  4.900000e+01 
 0.000000e+00  0.000000e+00  1.800000e+00  0.000000e+00  0.000000e+00  1.800000e+00  1.800000e+00  0.000000e+00  0.000000e+00  0.000000e+00  0.000000e+00  9.201048e-01  0.000000e+00  1.158578e-05  6.092821e-10  1.253236e-06  4.946628e-07 -2.862707e-18  9.201048e-01  5.000000e+01 
 0.000000e+00  1.800000e+00  1.800000e+00  0.000000e+00  0.000000e+00  1.800000e+00  1.800000e+00  0.000000e+00  0.000000e+00  0.000000e+00  0.000000e+00  9.292356e-01  0.000000e+00  1.158500e-05  6.092786e-10  1.253236e-06  4.946628e-07  2.696199e-18  9.292356e-01  5.100000e+01 
 0.000000e+00  0.000000e+00  0.000000e+00  1.800000e+00  0.000000e+00  1.800000e+00  1.800000e+00  0.000000e+00  0.000000e+00  0.000000e+00  0.000000e+00  9.389040e-01  0.000000e+00  1.158407e-05  6.092801e-10  1.253236e-06  4.946628e-07  2.704431e-18  9.389040e-01  5.200000e+01 
 0.000000e+00  1.800000e+00  0.000000e+00  1.800000e+00  0.000000e+00  1.800000e+00  1.800000e+00  0.000000e+00  0.000000e+00  0.000000e+00  0.000000e+00  9.480347e-01  0.000000e+00  1.158312e-05  6.092787e-10  1.253236e-06  4.946628e-07 -1.843250e-18  9.480347e-01  5.300000e+01 
 0.000000e+00  0.000000e+00  1.800000e+00  1.800000e+00  0.000000e+00  1.800000e+00  1.800000e+00  0.000000e+00  0.000000e+00  0.000000e+00  0.000000e+00  9.571655e-01  0.000000e+00  1.158212e-05  6.092802e-10  1.253236e-06  4.946628e-07 -3.177088e-18  9.571655e-01  5.400000e+01 
 0.000000e+00  1.800000e+00  1.800000e+00  1.800000e+00  0.000000e+00  1.800000e+00  1.800000e+00  0.000000e+00  0.000000e+00  0.000000e+00  0.000000e+00  9.662963e-01  0.000000e+00  1.158107e-05  6.092778e-10  1.253236e-06  4.946628e-07 -3.264915e-19  9.662963e-01  5.500000e+01 
 0.000000e+00  0.000000e+00  0.000000e+00  0.000000e+00  1.800000e+00  1.800000e+00  1.800000e+00  0.000000e+00  0.000000e+00  0.000000e+00  0.000000e+00  9.754267e-01  0.000000e+00  1.157999e-05  6.092820e-10  1.253236e-06  4.946628e-07  8.085194e-20  9.754267e-01  5.600000e+01 
 0.000000e+00  1.800000e+00  0.000000e+00  0.000000e+00  1.800000e+00  1.800000e+00  1.800000e+00  0.000000e+00  0.000000e+00  0.000000e+00  0.000000e+00  9.845575e-01  0.000000e+00  1.157887e-05  6.092799e-10  1.253236e-06  4.946628e-07  4.067240e-18  9.845575e-01  5.700000e+01 
 0.000000e+00  0.000000e+00  1.800000e+00  0.000000e+00  1.800000e+00  1.800000e+00  1.800000e+00  0.000000e+00  0.000000e+00  0.000000e+00  0.000000e+00  9.931527e-01  0.000000e+00  1.157780e-05  6.092777e-10  1.253236e-06  4.946628e-07 -2.315973e-19  9.931527e-01  5.800000e+01 
 0.000000e+00  1.800000e+00  1.800000e+00  0.000000e+00  1.800000e+00  1.800000e+00  1.800000e+00  0.000000e+00  0.000000e+00  0.000000e+00  0.000000e+00  1.001748e+00  0.000000e+00  1.157671e-05  6.092796e-10  1.253236e-06  4.946628e-07 -3.605581e-19  1.001748e+00  5.900000e+01 
 0.000000e+00  0.000000e+00  0.000000e+00  1.800000e+00  1.800000e+00  1.800000e+00  1.800000e+00  0.000000e+00  0.000000e+00  0.000000e+00  0.000000e+00  1.010343e+00  0.000000e+00  1.157562e-05  6.092777e-10  1.253236e-06  4.946628e-07  3.101385e-18  1.010343e+00  6.000000e+01 
 0.000000e+00  1.800000e+00  0.000000e+00  1.800000e+00  1.800000e+00  1.800000e+00  1.800000e+00  0.000000e+00  0.000000e+00  0.000000e+00  0.000000e+00  1.018939e+00  0.000000e+00  1.157451e-05  6.092795e-10  1.253236e-06  4.946628e-07  1.293737e-18  1.018939e+00  6.100000e+01 
 0.000000e+00  0.000000e+00  1.800000e+00  1.800000e+00  1.800000e+00  1.800000e+00  1.800000e+00  0.000000e+00  0.000000e+00  0.000000e+00  0.000000e+00  1.027534e+00  0.000000e+00  1.157339e-05  6.092795e-10  1.253236e-06  4.946628e-07  2.997305e-19  1.027534e+00  6.200000e+01 
 0.000000e+00  1.800000e+00  1.800000e+00  1.800000e+00  1.800000e+00  1.800000e+00  1.800000e+00  0.000000e+00  0.000000e+00  0.000000e+00  0.000000e+00  1.036129e+00  0.000000e+00  1.157227e-05  6.092775e-10  1.253236e-06  4.946628e-07 -2.417697e-18  1.036129e+00  6.300000e+01 
 0.000000e+00  0.000000e+00  0.000000e+00  0.000000e+00  0.000000e+00  0.000000e+00  0.000000e+00  1.800000e+00  0.000000e+00  0.000000e+00  0.000000e+00  1.044198e+00  0.000000e+00  1.157134e-05  5.876389e-10  1.253236e-06  4.946628e-07  2.525627e-18  1.044198e+00  6.400000e+01 
 0.000000e+00  1.800000e+00  0.000000e+00  0.000000e+00  0.000000e+00  0.000000e+00  0.000000e+00  1.800000e+00  0.000000e+00  0.000000e+00  0.000000e+00  1.049538e+00  0.000000e+00  1.157202e-05  5.876356e-10  1.253236e-06  4.946628e-07  6.317688e-18  1.049538e+00  6.500000e+01 
 0.000000e+00  0.000000e+00  1.800000e+00  0.000000e+00  0.000000e+00  0.000000e+00  0.000000e+00  1.800000e+00  0.000000e+00  0.000000e+00  0.000000e+00  1.055429e+00  0.000000e+00  1.157252e-05  5.876372e-10  1.253236e-06  4.946628e-07  1.798555e-18  1.055429e+00  6.600000e+01 
 0.000000e+00  1.800000e+00  1.800000e+00  0.000000e+00  0.000000e+00  0.000000e+00  0.000000e+00  1.800000e+00  0.000000e+00  0.000000e+00  0.000000e+00  1.062016e+00  0.000000e+00  1.157178e-05  5.876338e-10  1.253236e-06  4.946628e-07  1.081013e-18  1.062016e+00  6.700000e+01 
 0.000000e+00  0.000000e+00  0.000000e+00  1.800000e+00  0.000000e+00  0.000000e+00  0.000000e+00  1.800000e+00  0.000000e+00  0.000000e+00  0.000000e+00  1.069162e+00  0.000000e+00  1.157248e-05  5.876393e-10  1.253236e-06  4.946628e-07 -9.139750e-19  1.069162e+00  6.800000e+01 
 0.000000e+00  1.800000e+00  0.000000e+00  1.800000e+00  0.000000e+00  0.000000e+00  0.000000e+00  1.800000e+00  0.000000e+00  0.000000e+00  0.000000e+00  1.077323e+00  0.000000e+00  1.156990e-05  5.876365e-10  1.253236e-06  4.946628e-07  3.439351e-19  1.077323e+00  6.900000e+01 
