 v-sweep       voutval       vloadval      ir1           ir2           ivdd          ivdda         ivddh         ndata         vd9           vd8           vd7           vd6           vd5           vd4           vd3           vd2           vd1           vd0          
 5.000000e+00  3.156693e-04  3.156693e-04  5.131501e-07  1.018756e-06  2.343531e-10  9.096423e-06  9.054530e-10  0.000000e+00  0.000000e+00  0.000000e+00  0.000000e+00  0.000000e+00  0.000000e+00  0.000000e+00  0.000000e+00  0.000000e+00  0.000000e+00  0.000000e+00 
 5.000000e+00  5.139347e-02  5.139347e-02  5.131501e-07  1.018756e-06  2.343533e-10  9.195867e-06  9.043481e-10  1.000000e+00  0.000000e+00  0.000000e+00  0.000000e+00  0.000000e+00  0.000000e+00  0.000000e+00  0.000000e+00  0.000000e+00  0.000000e+00  1.800000e+00 
 5.000000e+00  9.731674e-02  9.731674e-02  5.131501e-07  1.018756e-06  2.343536e-10  9.220508e-06  9.029590e-10  2.000000e+00  0.000000e+00  0.000000e+00  0.000000e+00  0.000000e+00  0.000000e+00  0.000000e+00  0.000000e+00  0.000000e+00  1.800000e+00  0.000000e+00 
 5.000000e+00  1.385450e-01  1.385450e-01  5.131501e-07  1.018756e-06  2.343543e-10  9.227930e-06  9.021703e-10  3.000000e+00  0.000000e+00  0.000000e+00  0.000000e+00  0.000000e+00  0.000000e+00  0.000000e+00  0.000000e+00  0.000000e+00  1.800000e+00  1.800000e+00 
 5.000000e+00  1.764932e-01  1.764932e-01  5.131501e-07  1.018756e-06  2.343547e-10  9.231230e-06  9.012537e-10  4.000000e+00  0.000000e+00  0.000000e+00  0.000000e+00  0.000000e+00  0.000000e+00  0.000000e+00  0.000000e+00  1.800000e+00  0.000000e+00  0.000000e+00 
 5.000000e+00  2.120952e-01  2.120952e-01  5.131501e-07  1.018756e-06  2.343561e-10  9.233145e-06  9.003762e-10  5.000000e+00  0.000000e+00  0.000000e+00  0.000000e+00  0.000000e+00  0.000000e+00  0.000000e+00  0.000000e+00  1.800000e+00  0.000000e+00  1.800000e+00 
 5.000000e+00  2.453571e-01  2.453571e-01  5.131501e-07  1.018756e-06  2.343546e-10  9.234464e-06  8.991753e-10  6.000000e+00  0.000000e+00  0.000000e+00  0.000000e+00  0.000000e+00  0.000000e+00  0.000000e+00  0.000000e+00  1.800000e+00  1.800000e+00  0.000000e+00 
 5.000000e+00  2.749785e-01  2.749785e-01  5.131501e-07  1.018756e-06  2.343547e-10  9.235473e-06  8.988343e-10  7.000000e+00  0.000000e+00  0.000000e+00  0.000000e+00  0.000000e+00  0.000000e+00  0.000000e+00  0.000000e+00  1.800000e+00  1.800000e+00  1.800000e+00 
 5.000000e+00  3.031960e-01  3.031960e-01  5.131501e-07  1.018756e-06  2.343531e-10  9.236420e-06  8.965178e-10  8.000000e+00  0.000000e+00  0.000000e+00  0.000000e+00  0.000000e+00  0.000000e+00  0.000000e+00  1.800000e+00  0.000000e+00  0.000000e+00  0.000000e+00 
 5.000000e+00  3.300074e-01  3.300074e-01  5.131501e-07  1.018756e-06  2.343499e-10  9.237417e-06  8.957717e-10  9.000000e+00  0.000000e+00  0.000000e+00  0.000000e+00  0.000000e+00  0.000000e+00  0.000000e+00  1.800000e+00  0.000000e+00  0.000000e+00  1.800000e+00 
 5.000000e+00  3.554151e-01  3.554151e-01  5.131501e-07  1.018756e-06  2.343532e-10  9.238570e-06  8.958286e-10  1.000000e+01  0.000000e+00  0.000000e+00  0.000000e+00  0.000000e+00  0.000000e+00  0.000000e+00  1.800000e+00  0.000000e+00  1.800000e+00  0.000000e+00 
 5.000000e+00  3.798862e-01  3.798862e-01  5.131501e-07  1.018756e-06  2.343568e-10  9.240011e-06  8.947166e-10  1.100000e+01  0.000000e+00  0.000000e+00  0.000000e+00  0.000000e+00  0.000000e+00  0.000000e+00  1.800000e+00  0.000000e+00  1.800000e+00  1.800000e+00 
 5.000000e+00  4.034205e-01  4.034205e-01  5.131501e-07  1.018756e-06  2.343513e-10  9.241883e-06  8.940238e-10  1.200000e+01  0.000000e+00  0.000000e+00  0.000000e+00  0.000000e+00  0.000000e+00  0.000000e+00  1.800000e+00  1.800000e+00  0.000000e+00  0.000000e+00 
 5.000000e+00  4.260183e-01  4.260183e-01  5.131501e-07  1.018756e-06  2.343534e-10  9.244348e-06  8.930752e-10  1.300000e+01  0.000000e+00  0.000000e+00  0.000000e+00  0.000000e+00  0.000000e+00  0.000000e+00  1.800000e+00  1.800000e+00  0.000000e+00  1.800000e+00 
 5.000000e+00  4.481463e-01  4.481463e-01  5.131501e-07  1.018756e-06  2.343546e-10  9.247686e-06  8.914481e-10  1.400000e+01  0.000000e+00  0.000000e+00  0.000000e+00  0.000000e+00  0.000000e+00  0.000000e+00  1.800000e+00  1.800000e+00  1.800000e+00  0.000000e+00 
 5.000000e+00  4.693405e-01  4.693405e-01  5.131501e-07  1.018756e-06  2.343548e-10  9.252071e-06  8.910253e-10  1.500000e+01  0.000000e+00  0.000000e+00  0.000000e+00  0.000000e+00  0.000000e+00  0.000000e+00  1.800000e+00  1.800000e+00  1.800000e+00  1.800000e+00 
 5.000000e+00  4.900631e-01  4.900631e-01  5.131501e-07  1.018756e-06  2.350730e-10  9.257897e-06  8.580385e-10  1.600000e+01  0.000000e+00  0.000000e+00  0.000000e+00  0.000000e+00  0.000000e+00  1.800000e+00  0.000000e+00  0.000000e+00  0.000000e+00  0.000000e+00 
 5.000000e+00  5.098508e-01  5.098508e-01  5.131501e-07  1.018756e-06  2.350717e-10  9.265342e-06  8.580918e-10  1.700000e+01  0.000000e+00  0.000000e+00  0.000000e+00  0.000000e+00  0.000000e+00  1.800000e+00  0.000000e+00  0.000000e+00  0.000000e+00  1.800000e+00 
 5.000000e+00  5.296385e-01  5.296385e-01  5.131501e-07  1.018756e-06  2.350719e-10  9.275164e-06  8.574878e-10  1.800000e+01  0.000000e+00  0.000000e+00  0.000000e+00  0.000000e+00  0.000000e+00  1.800000e+00  0.000000e+00  0.000000e+00  1.800000e+00  0.000000e+00 
 5.000000e+00  5.484897e-01  5.484897e-01  5.131501e-07  1.018756e-06  2.350758e-10  9.287286e-06  8.570615e-10  1.900000e+01  0.000000e+00  0.000000e+00  0.000000e+00  0.000000e+00  0.000000e+00  1.800000e+00  0.000000e+00  0.000000e+00  1.800000e+00  1.800000e+00 
 5.000000e+00  5.673407e-01  5.673407e-01  5.131501e-07  1.018756e-06  2.350716e-10  9.302699e-06  8.569243e-10  2.000000e+01  0.000000e+00  0.000000e+00  0.000000e+00  0.000000e+00  0.000000e+00  1.800000e+00  0.000000e+00  1.800000e+00  0.000000e+00  0.000000e+00 
 5.000000e+00  5.852554e-01  5.852554e-01  5.131501e-07  1.018756e-06  2.350771e-10  9.320951e-06  8.567880e-10  2.100000e+01  0.000000e+00  0.000000e+00  0.000000e+00  0.000000e+00  0.000000e+00  1.800000e+00  0.000000e+00  1.800000e+00  0.000000e+00  1.800000e+00 
 5.000000e+00  6.031702e-01  6.031702e-01  5.131501e-07  1.018756e-06  2.350750e-10  9.343205e-06  8.557293e-10  2.200000e+01  0.000000e+00  0.000000e+00  0.000000e+00  0.000000e+00  0.000000e+00  1.800000e+00  0.000000e+00  1.800000e+00  1.800000e+00  0.000000e+00 
 5.000000e+00  6.189782e-01  6.189782e-01  5.131501e-07  1.018756e-06  2.350772e-10  9.366510e-06  8.556475e-10  2.300000e+01  0.000000e+00  0.000000e+00  0.000000e+00  0.000000e+00  0.000000e+00  1.800000e+00  0.000000e+00  1.800000e+00  1.800000e+00  1.800000e+00 
 5.000000e+00  6.347860e-01  6.347860e-01  5.131501e-07  1.018756e-06  2.350744e-10  9.393460e-06  8.537497e-10  2.400000e+01  0.000000e+00  0.000000e+00  0.000000e+00  0.000000e+00  0.000000e+00  1.800000e+00  1.800000e+00  0.000000e+00  0.000000e+00  0.000000e+00 
 5.000000e+00  6.496572e-01  6.496572e-01  5.131501e-07  1.018756e-06  2.350758e-10  9.422209e-06  8.528864e-10  2.500000e+01  0.000000e+00  0.000000e+00  0.000000e+00  0.000000e+00  0.000000e+00  1.800000e+00  1.800000e+00  0.000000e+00  0.000000e+00  1.800000e+00 
 5.000000e+00  6.645286e-01  6.645286e-01  5.131501e-07  1.018756e-06  2.350757e-10  9.454179e-06  8.528017e-10  2.600000e+01  0.000000e+00  0.000000e+00  0.000000e+00  0.000000e+00  0.000000e+00  1.800000e+00  1.800000e+00  0.000000e+00  1.800000e+00  0.000000e+00 
 5.000000e+00  6.789324e-01  6.789324e-01  5.131501e-07  1.018756e-06  2.350743e-10  9.488012e-06  8.523890e-10  2.700000e+01  0.000000e+00  0.000000e+00  0.000000e+00  0.000000e+00  0.000000e+00  1.800000e+00  1.800000e+00  0.000000e+00  1.800000e+00  1.800000e+00 
 5.000000e+00  6.933362e-01  6.933362e-01  5.131501e-07  1.018756e-06  2.350730e-10  9.524304e-06  8.498097e-10  2.800000e+01  0.000000e+00  0.000000e+00  0.000000e+00  0.000000e+00  0.000000e+00  1.800000e+00  1.800000e+00  1.800000e+00  0.000000e+00  0.000000e+00 
 5.000000e+00  7.072724e-01  7.072724e-01  5.131501e-07  1.018756e-06  2.350753e-10  9.561264e-06  8.495753e-10  2.900000e+01  0.000000e+00  0.000000e+00  0.000000e+00  0.000000e+00  0.000000e+00  1.800000e+00  1.800000e+00  1.800000e+00  0.000000e+00  1.800000e+00 
 5.000000e+00  7.212086e-01  7.212086e-01  5.131501e-07  1.018756e-06  2.350778e-10  9.599446e-06  8.495184e-10  3.000000e+01  0.000000e+00  0.000000e+00  0.000000e+00  0.000000e+00  0.000000e+00  1.800000e+00  1.800000e+00  1.800000e+00  1.800000e+00  0.000000e+00 
 5.000000e+00  7.346770e-01  7.346770e-01  5.131501e-07  1.018756e-06  2.350791e-10  9.636843e-06  8.493870e-10  3.100000e+01  0.000000e+00  0.000000e+00  0.000000e+00  0.000000e+00  0.000000e+00  1.800000e+00  1.800000e+00  1.800000e+00  1.800000e+00  1.800000e+00 
 5.000000e+00  7.481430e-01  7.481430e-01  5.131501e-07  1.018756e-06  2.350748e-10  9.674022e-06  8.144590e-10  3.200000e+01  0.000000e+00  0.000000e+00  0.000000e+00  0.000000e+00  1.800000e+00  0.000000e+00  0.000000e+00  0.000000e+00  0.000000e+00  0.000000e+00 
 5.000000e+00  7.611419e-01  7.611419e-01  5.131501e-07  1.018756e-06  2.350709e-10  9.709041e-06  8.140433e-10  3.300000e+01  0.000000e+00  0.000000e+00  0.000000e+00  0.000000e+00  1.800000e+00  0.000000e+00  0.000000e+00  0.000000e+00  0.000000e+00  1.800000e+00 
 5.000000e+00  7.741408e-01  7.741408e-01  5.131501e-07  1.018756e-06  2.350762e-10  9.742586e-06  8.139829e-10  3.400000e+01  0.000000e+00  0.000000e+00  0.000000e+00  0.000000e+00  1.800000e+00  0.000000e+00  0.000000e+00  0.000000e+00  1.800000e+00  0.000000e+00 
 5.000000e+00  7.871396e-01  7.871396e-01  5.131501e-07  1.018756e-06  2.350776e-10  9.774107e-06  8.135814e-10  3.500000e+01  0.000000e+00  0.000000e+00  0.000000e+00  0.000000e+00  1.800000e+00  0.000000e+00  0.000000e+00  0.000000e+00  1.800000e+00  1.800000e+00 
 5.000000e+00  7.996703e-01  7.996703e-01  5.131501e-07  1.018756e-06  2.350711e-10  9.802160e-06  8.136667e-10  3.600000e+01  0.000000e+00  0.000000e+00  0.000000e+00  0.000000e+00  1.800000e+00  0.000000e+00  0.000000e+00  1.800000e+00  0.000000e+00  0.000000e+00 
 5.000000e+00  8.117331e-01  8.117331e-01  5.131501e-07  1.018756e-06  2.350759e-10  9.826714e-06  8.126435e-10  3.700000e+01  0.000000e+00  0.000000e+00  0.000000e+00  0.000000e+00  1.800000e+00  0.000000e+00  0.000000e+00  1.800000e+00  0.000000e+00  1.800000e+00 
 5.000000e+00  8.242636e-01  8.242636e-01  5.131501e-07  1.018756e-06  2.350762e-10  9.849504e-06  8.125760e-10  3.800000e+01  0.000000e+00  0.000000e+00  0.000000e+00  0.000000e+00  1.800000e+00  0.000000e+00  0.000000e+00  1.800000e+00  1.800000e+00  0.000000e+00 
 5.000000e+00  8.363262e-01  8.363262e-01  5.131501e-07  1.018756e-06  2.350770e-10  9.868768e-06  8.122207e-10  3.900000e+01  0.000000e+00  0.000000e+00  0.000000e+00  0.000000e+00  1.800000e+00  0.000000e+00  0.000000e+00  1.800000e+00  1.800000e+00  1.800000e+00 
 5.000000e+00  8.479190e-01  8.479190e-01  5.131501e-07  1.018756e-06  2.350758e-10  9.884847e-06  8.057923e-10  4.000000e+01  0.000000e+00  0.000000e+00  0.000000e+00  0.000000e+00  1.800000e+00  0.000000e+00  1.800000e+00  0.000000e+00  0.000000e+00  0.000000e+00 
 5.000000e+00  8.599813e-01  8.599813e-01  5.131501e-07  1.018756e-06  2.350760e-10  9.899156e-06  8.054512e-10  4.100000e+01  0.000000e+00  0.000000e+00  0.000000e+00  0.000000e+00  1.800000e+00  0.000000e+00  1.800000e+00  0.000000e+00  0.000000e+00  1.800000e+00 
 5.000000e+00  8.715742e-01  8.715742e-01  5.131501e-07  1.018756e-06  2.350771e-10  9.910744e-06  8.049183e-10  4.200000e+01  0.000000e+00  0.000000e+00  0.000000e+00  0.000000e+00  1.800000e+00  0.000000e+00  1.800000e+00  0.000000e+00  1.800000e+00  0.000000e+00 
 5.000000e+00  8.826992e-01  8.826992e-01  5.131501e-07  1.018756e-06  2.350755e-10  9.920050e-06  8.047869e-10  4.300000e+01  0.000000e+00  0.000000e+00  0.000000e+00  0.000000e+00  1.800000e+00  0.000000e+00  1.800000e+00  0.000000e+00  1.800000e+00  1.800000e+00 
 5.000000e+00  8.942920e-01  8.942920e-01  5.131501e-07  1.018756e-06  2.350731e-10  9.928049e-06  8.038099e-10  4.400000e+01  0.000000e+00  0.000000e+00  0.000000e+00  0.000000e+00  1.800000e+00  0.000000e+00  1.800000e+00  1.800000e+00  0.000000e+00  0.000000e+00 
 5.000000e+00  9.054169e-01  9.054169e-01  5.131501e-07  1.018756e-06  2.350738e-10  9.934289e-06  8.037388e-10  4.500000e+01  0.000000e+00  0.000000e+00  0.000000e+00  0.000000e+00  1.800000e+00  0.000000e+00  1.800000e+00  1.800000e+00  0.000000e+00  1.800000e+00 
 5.000000e+00  9.165417e-01  9.165417e-01  5.131501e-07  1.018756e-06  2.350762e-10  9.939301e-06  8.034049e-10  4.600000e+01  0.000000e+00  0.000000e+00  0.000000e+00  0.000000e+00  1.800000e+00  0.000000e+00  1.800000e+00  1.800000e+00  1.800000e+00  0.000000e+00 
 5.000000e+00  9.276665e-01  9.276665e-01  5.131501e-07  1.018756e-06  2.350768e-10  9.943256e-06  8.033125e-10  4.700000e+01  0.000000e+00  0.000000e+00  0.000000e+00  0.000000e+00  1.800000e+00  0.000000e+00  1.800000e+00  1.800000e+00  1.800000e+00  1.800000e+00 
 5.000000e+00  9.383212e-01  9.383212e-01  5.131501e-07  1.018756e-06  2.357947e-10  9.946184e-06  7.650339e-10  4.800000e+01  0.000000e+00  0.000000e+00  0.000000e+00  0.000000e+00  1.800000e+00  1.800000e+00  0.000000e+00  0.000000e+00  0.000000e+00  0.000000e+00 
 5.000000e+00  9.494459e-01  9.494459e-01  5.131501e-07  1.018756e-06  2.357940e-10  9.948485e-06  7.640924e-10  4.900000e+01  0.000000e+00  0.000000e+00  0.000000e+00  0.000000e+00  1.800000e+00  1.800000e+00  0.000000e+00  0.000000e+00  0.000000e+00  1.800000e+00 
 5.000000e+00  9.601026e-01  9.601026e-01  5.131501e-07  1.018756e-06  2.357944e-10  9.950070e-06  7.638544e-10  5.000000e+01  0.000000e+00  0.000000e+00  0.000000e+00  0.000000e+00  1.800000e+00  1.800000e+00  0.000000e+00  0.000000e+00  1.800000e+00  0.000000e+00 
 5.000000e+00  9.702915e-01  9.702915e-01  5.131501e-07  1.018756e-06  2.357939e-10  9.951108e-06  7.636555e-10  5.100000e+01  0.000000e+00  0.000000e+00  0.000000e+00  0.000000e+00  1.800000e+00  1.800000e+00  0.000000e+00  0.000000e+00  1.800000e+00  1.800000e+00 
 5.000000e+00  9.809482e-01  9.809482e-01  5.131501e-07  1.018756e-06  2.357933e-10  9.951780e-06  7.616517e-10  5.200000e+01  0.000000e+00  0.000000e+00  0.000000e+00  0.000000e+00  1.800000e+00  1.800000e+00  0.000000e+00  1.800000e+00  0.000000e+00  0.000000e+00 
 5.000000e+00  9.911371e-01  9.911371e-01  5.131501e-07  1.018756e-06  2.357947e-10  9.952085e-06  7.615801e-10  5.300000e+01  0.000000e+00  0.000000e+00  0.000000e+00  0.000000e+00  1.800000e+00  1.800000e+00  0.000000e+00  1.800000e+00  0.000000e+00  1.800000e+00 
 5.000000e+00  1.001326e+00  1.001326e+00  5.131501e-07  1.018756e-06  2.357952e-10  9.952123e-06  7.611615e-10  5.400000e+01  0.000000e+00  0.000000e+00  0.000000e+00  0.000000e+00  1.800000e+00  1.800000e+00  0.000000e+00  1.800000e+00  1.800000e+00  0.000000e+00 
 5.000000e+00  1.011515e+00  1.011515e+00  5.131501e-07  1.018756e-06  2.357969e-10  9.951939e-06  7.607955e-10  5.500000e+01  0.000000e+00  0.000000e+00  0.000000e+00  0.000000e+00  1.800000e+00  1.800000e+00  0.000000e+00  1.800000e+00  1.800000e+00  1.800000e+00 
 5.000000e+00  1.021703e+00  1.021703e+00  5.131501e-07  1.018756e-06  2.357939e-10  9.951577e-06  7.558419e-10  5.600000e+01  0.000000e+00  0.000000e+00  0.000000e+00  0.000000e+00  1.800000e+00  1.800000e+00  1.800000e+00  0.000000e+00  0.000000e+00  0.000000e+00 
 5.000000e+00  1.031892e+00  1.031892e+00  5.131501e-07  1.018756e-06  2.357947e-10  9.951068e-06  7.542574e-10  5.700000e+01  0.000000e+00  0.000000e+00  0.000000e+00  0.000000e+00  1.800000e+00  1.800000e+00  1.800000e+00  0.000000e+00  0.000000e+00  1.800000e+00 
 5.000000e+00  1.649337e+00  1.649337e+00  5.131501e-07  1.018756e-06  2.357955e-10  9.897982e-06 -3.432463e-04  5.800000e+01  0.000000e+00  0.000000e+00  0.000000e+00  0.000000e+00  1.800000e+00  1.800000e+00  1.800000e+00  0.000000e+00  1.800000e+00  0.000000e+00 
 5.000000e+00  1.051331e+00  1.051331e+00  5.131501e-07  1.018756e-06  2.357985e-10  9.949808e-06  7.531367e-10  5.900000e+01  0.000000e+00  0.000000e+00  0.000000e+00  0.000000e+00  1.800000e+00  1.800000e+00  1.800000e+00  0.000000e+00  1.800000e+00  1.800000e+00 
 5.000000e+00  1.680117e+00  1.680117e+00  5.131501e-07  1.018756e-06  2.357952e-10  9.895908e-06 -3.432464e-04  6.000000e+01  0.000000e+00  0.000000e+00  0.000000e+00  0.000000e+00  1.800000e+00  1.800000e+00  1.800000e+00  1.800000e+00  0.000000e+00  0.000000e+00 
 5.000000e+00  2.211144e-08  2.211144e-08  5.131501e-07  1.018756e-06  2.357963e-10  8.603348e-06 -4.124013e-03  6.200000e+01  0.000000e+00  0.000000e+00  0.000000e+00  0.000000e+00  1.800000e+00  1.800000e+00  1.800000e+00  1.800000e+00  1.800000e+00  0.000000e+00 
 5.000000e+00  1.726288e+00  1.726288e+00  5.131501e-07  1.018756e-06  2.357955e-10  9.892912e-06 -3.432463e-04  6.300000e+01  0.000000e+00  0.000000e+00  0.000000e+00  0.000000e+00  1.800000e+00  1.800000e+00  1.800000e+00  1.800000e+00  1.800000e+00  1.800000e+00 
 5.000000e+00  1.099479e+00  1.099479e+00  5.131501e-07  1.018756e-06  2.411348e-10  9.945709e-06  9.145558e-10  6.400000e+01  0.000000e+00  0.000000e+00  0.000000e+00  1.800000e+00  0.000000e+00  0.000000e+00  0.000000e+00  0.000000e+00  0.000000e+00  0.000000e+00 
 5.000000e+00  1.104691e+00  1.104691e+00  5.131501e-07  1.018756e-06  2.411308e-10  9.945349e-06  9.142538e-10  6.500000e+01  0.000000e+00  0.000000e+00  0.000000e+00  1.800000e+00  0.000000e+00  0.000000e+00  0.000000e+00  0.000000e+00  0.000000e+00  1.800000e+00 
 5.000000e+00  1.110378e+00  1.110378e+00  5.131501e-07  1.018756e-06  2.411348e-10  9.944979e-06  9.141188e-10  6.600000e+01  0.000000e+00  0.000000e+00  0.000000e+00  1.800000e+00  0.000000e+00  0.000000e+00  0.000000e+00  0.000000e+00  1.800000e+00  0.000000e+00 
 5.000000e+00  1.116680e+00  1.116680e+00  5.131501e-07  1.018756e-06  2.411352e-10  9.944078e-06  9.138062e-10  6.700000e+01  0.000000e+00  0.000000e+00  0.000000e+00  1.800000e+00  0.000000e+00  0.000000e+00  0.000000e+00  0.000000e+00  1.800000e+00  1.800000e+00 
 5.000000e+00  1.123340e+00  1.123340e+00  5.131501e-07  1.018756e-06  2.411348e-10  9.944095e-06  9.140371e-10  6.800000e+01  0.000000e+00  0.000000e+00  0.000000e+00  1.800000e+00  0.000000e+00  0.000000e+00  0.000000e+00  1.800000e+00  0.000000e+00  0.000000e+00 
 5.000000e+00  1.130887e+00  1.130887e+00  5.131501e-07  1.018756e-06  2.411347e-10  9.942629e-06  9.137174e-10  6.900000e+01  0.000000e+00  0.000000e+00  0.000000e+00  1.800000e+00  0.000000e+00  0.000000e+00  0.000000e+00  1.800000e+00  0.000000e+00  1.800000e+00 
 5.000000e+00  1.138941e+00  1.138941e+00  5.131501e-07  1.018756e-06  2.411359e-10  9.941295e-06  9.137209e-10  7.000000e+01  0.000000e+00  0.000000e+00  0.000000e+00  1.800000e+00  0.000000e+00  0.000000e+00  0.000000e+00  1.800000e+00  1.800000e+00  0.000000e+00 
 5.000000e+00  1.147616e+00  1.147616e+00  5.131501e-07  1.018756e-06  2.411376e-10  9.939296e-06  9.131774e-10  7.100000e+01  0.000000e+00  0.000000e+00  0.000000e+00  1.800000e+00  0.000000e+00  0.000000e+00  0.000000e+00  1.800000e+00  1.800000e+00  1.800000e+00 
 5.000000e+00  1.155081e+00  1.155081e+00  5.131501e-07  1.018756e-06  2.411340e-10  9.941514e-06  9.121985e-10  7.200000e+01  0.000000e+00  0.000000e+00  0.000000e+00  1.800000e+00  0.000000e+00  0.000000e+00  1.800000e+00  0.000000e+00  0.000000e+00  0.000000e+00 
 5.000000e+00  1.164032e+00  1.164032e+00  5.131501e-07  1.018756e-06  2.411359e-10  9.939394e-06  9.114631e-10  7.300000e+01  0.000000e+00  0.000000e+00  0.000000e+00  1.800000e+00  0.000000e+00  0.000000e+00  1.800000e+00  0.000000e+00  0.000000e+00  1.800000e+00 
