 v-sweep       voutval       vloadval      ir1           ir2           ivdd          ivdda         ivddh         ndata         vd9           vd8           vd7           vd6           vd5           vd4           vd3           vd2           vd1           vd0          
 5.000000e+00  3.156787e-04  3.156787e-04  5.131501e-07  1.018756e-06  2.343533e-10  9.096424e-06  8.966095e-10  0.000000e+00  0.000000e+00  0.000000e+00  0.000000e+00  0.000000e+00  0.000000e+00  0.000000e+00  0.000000e+00  0.000000e+00  0.000000e+00  0.000000e+00 
 5.000000e+00  5.251301e-02  5.251301e-02  5.131501e-07  1.018756e-06  2.343529e-10  9.196913e-06  8.953199e-10  1.000000e+00  0.000000e+00  0.000000e+00  0.000000e+00  0.000000e+00  0.000000e+00  0.000000e+00  0.000000e+00  0.000000e+00  0.000000e+00  1.800000e+00 
 5.000000e+00  9.873031e-02  9.873031e-02  5.131501e-07  1.018756e-06  2.343549e-10  9.220890e-06  8.941924e-10  2.000000e+00  0.000000e+00  0.000000e+00  0.000000e+00  0.000000e+00  0.000000e+00  0.000000e+00  0.000000e+00  0.000000e+00  1.800000e+00  0.000000e+00 
 5.000000e+00  1.395600e-01  1.395600e-01  5.131501e-07  1.018756e-06  2.343557e-10  9.228048e-06  8.931528e-10  3.000000e+00  0.000000e+00  0.000000e+00  0.000000e+00  0.000000e+00  0.000000e+00  0.000000e+00  0.000000e+00  0.000000e+00  1.800000e+00  1.800000e+00 
 5.000000e+00  1.766270e-01  1.766270e-01  5.131501e-07  1.018756e-06  2.343546e-10  9.231240e-06  8.921743e-10  4.000000e+00  0.000000e+00  0.000000e+00  0.000000e+00  0.000000e+00  0.000000e+00  0.000000e+00  0.000000e+00  1.800000e+00  0.000000e+00  0.000000e+00 
 5.000000e+00  2.110067e-01  2.110067e-01  5.131501e-07  1.018756e-06  2.343529e-10  9.233097e-06  8.915914e-10  5.000000e+00  0.000000e+00  0.000000e+00  0.000000e+00  0.000000e+00  0.000000e+00  0.000000e+00  0.000000e+00  1.800000e+00  0.000000e+00  1.800000e+00 
 5.000000e+00  2.426999e-01  2.426999e-01  5.131501e-07  1.018756e-06  2.343527e-10  9.234369e-06  8.904573e-10  6.000000e+00  0.000000e+00  0.000000e+00  0.000000e+00  0.000000e+00  0.000000e+00  0.000000e+00  0.000000e+00  1.800000e+00  1.800000e+00  0.000000e+00 
 5.000000e+00  2.722443e-01  2.722443e-01  5.131501e-07  1.018756e-06  2.343571e-10  9.235385e-06  8.900250e-10  7.000000e+00  0.000000e+00  0.000000e+00  0.000000e+00  0.000000e+00  0.000000e+00  0.000000e+00  0.000000e+00  1.800000e+00  1.800000e+00  1.800000e+00 
 5.000000e+00  3.001773e-01  3.001773e-01  5.131501e-07  1.018756e-06  2.343543e-10  9.236315e-06  8.835002e-10  8.000000e+00  0.000000e+00  0.000000e+00  0.000000e+00  0.000000e+00  0.000000e+00  0.000000e+00  1.800000e+00  0.000000e+00  0.000000e+00  0.000000e+00 
 5.000000e+00  3.264987e-01  3.264987e-01  5.131501e-07  1.018756e-06  2.343510e-10  9.237278e-06  8.832171e-10  9.000000e+00  0.000000e+00  0.000000e+00  0.000000e+00  0.000000e+00  0.000000e+00  0.000000e+00  1.800000e+00  0.000000e+00  0.000000e+00  1.800000e+00 
 5.000000e+00  3.512092e-01  3.512092e-01  5.131501e-07  1.018756e-06  2.343559e-10  9.238359e-06  8.832318e-10  1.000000e+01  0.000000e+00  0.000000e+00  0.000000e+00  0.000000e+00  0.000000e+00  0.000000e+00  1.800000e+00  0.000000e+00  1.800000e+00  0.000000e+00 
 5.000000e+00  3.748443e-01  3.748443e-01  5.131501e-07  1.018756e-06  2.343574e-10  9.239678e-06  8.819219e-10  1.100000e+01  0.000000e+00  0.000000e+00  0.000000e+00  0.000000e+00  0.000000e+00  0.000000e+00  1.800000e+00  0.000000e+00  1.800000e+00  1.800000e+00 
 5.000000e+00  3.974051e-01  3.974051e-01  5.131501e-07  1.018756e-06  2.343541e-10  9.241348e-06  8.816325e-10  1.200000e+01  0.000000e+00  0.000000e+00  0.000000e+00  0.000000e+00  0.000000e+00  0.000000e+00  1.800000e+00  1.800000e+00  0.000000e+00  0.000000e+00 
 5.000000e+00  4.188917e-01  4.188917e-01  5.131501e-07  1.018756e-06  2.343526e-10  9.243486e-06  8.813977e-10  1.300000e+01  0.000000e+00  0.000000e+00  0.000000e+00  0.000000e+00  0.000000e+00  0.000000e+00  1.800000e+00  1.800000e+00  0.000000e+00  1.800000e+00 
 5.000000e+00  4.398416e-01  4.398416e-01  5.131501e-07  1.018756e-06  2.343533e-10  9.246306e-06  8.805577e-10  1.400000e+01  0.000000e+00  0.000000e+00  0.000000e+00  0.000000e+00  0.000000e+00  0.000000e+00  1.800000e+00  1.800000e+00  1.800000e+00  0.000000e+00 
 5.000000e+00  4.597173e-01  4.597173e-01  5.131501e-07  1.018756e-06  2.343551e-10  9.249911e-06  8.802627e-10  1.500000e+01  0.000000e+00  0.000000e+00  0.000000e+00  0.000000e+00  0.000000e+00  0.000000e+00  1.800000e+00  1.800000e+00  1.800000e+00  1.800000e+00 
 5.000000e+00  4.790531e-01  4.790531e-01  5.131501e-07  1.018756e-06  2.350748e-10  9.254583e-06  8.490314e-10  1.600000e+01  0.000000e+00  0.000000e+00  0.000000e+00  0.000000e+00  0.000000e+00  1.800000e+00  0.000000e+00  0.000000e+00  0.000000e+00  0.000000e+00 
 5.000000e+00  4.973167e-01  4.973167e-01  5.131501e-07  1.018756e-06  2.350727e-10  9.260385e-06  8.489559e-10  1.700000e+01  0.000000e+00  0.000000e+00  0.000000e+00  0.000000e+00  0.000000e+00  1.800000e+00  0.000000e+00  0.000000e+00  0.000000e+00  1.800000e+00 
 5.000000e+00  5.155803e-01  5.155803e-01  5.131501e-07  1.018756e-06  2.350727e-10  9.267916e-06  8.481588e-10  1.800000e+01  0.000000e+00  0.000000e+00  0.000000e+00  0.000000e+00  0.000000e+00  1.800000e+00  0.000000e+00  0.000000e+00  1.800000e+00  0.000000e+00 
 5.000000e+00  5.327697e-01  5.327697e-01  5.131501e-07  1.018756e-06  2.350770e-10  9.276974e-06  8.482329e-10  1.900000e+01  0.000000e+00  0.000000e+00  0.000000e+00  0.000000e+00  0.000000e+00  1.800000e+00  0.000000e+00  0.000000e+00  1.800000e+00  1.800000e+00 
 5.000000e+00  5.499591e-01  5.499591e-01  5.131501e-07  1.018756e-06  2.350733e-10  9.288362e-06  8.479497e-10  2.000000e+01  0.000000e+00  0.000000e+00  0.000000e+00  0.000000e+00  0.000000e+00  1.800000e+00  0.000000e+00  1.800000e+00  0.000000e+00  0.000000e+00 
 5.000000e+00  5.660743e-01  5.660743e-01  5.131501e-07  1.018756e-06  2.350750e-10  9.301548e-06  8.477968e-10  2.100000e+01  0.000000e+00  0.000000e+00  0.000000e+00  0.000000e+00  0.000000e+00  1.800000e+00  0.000000e+00  1.800000e+00  0.000000e+00  1.800000e+00 
 5.000000e+00  5.821896e-01  5.821896e-01  5.131501e-07  1.018756e-06  2.350748e-10  9.317557e-06  8.476971e-10  2.200000e+01  0.000000e+00  0.000000e+00  0.000000e+00  0.000000e+00  0.000000e+00  1.800000e+00  0.000000e+00  1.800000e+00  1.800000e+00  0.000000e+00 
 5.000000e+00  5.977674e-01  5.977674e-01  5.131501e-07  1.018756e-06  2.350739e-10  9.336045e-06  8.465521e-10  2.300000e+01  0.000000e+00  0.000000e+00  0.000000e+00  0.000000e+00  0.000000e+00  1.800000e+00  0.000000e+00  1.800000e+00  1.800000e+00  1.800000e+00 
 5.000000e+00  6.133448e-01  6.133448e-01  5.131501e-07  1.018756e-06  2.350731e-10  9.357795e-06  8.414577e-10  2.400000e+01  0.000000e+00  0.000000e+00  0.000000e+00  0.000000e+00  0.000000e+00  1.800000e+00  1.800000e+00  0.000000e+00  0.000000e+00  0.000000e+00 
 5.000000e+00  6.278485e-01  6.278485e-01  5.131501e-07  1.018756e-06  2.350742e-10  9.381175e-06  8.408279e-10  2.500000e+01  0.000000e+00  0.000000e+00  0.000000e+00  0.000000e+00  0.000000e+00  1.800000e+00  1.800000e+00  0.000000e+00  0.000000e+00  1.800000e+00 
 5.000000e+00  6.423525e-01  6.423525e-01  5.131501e-07  1.018756e-06  2.350755e-10  9.407676e-06  8.404394e-10  2.600000e+01  0.000000e+00  0.000000e+00  0.000000e+00  0.000000e+00  0.000000e+00  1.800000e+00  1.800000e+00  0.000000e+00  1.800000e+00  0.000000e+00 
 5.000000e+00  6.563189e-01  6.563189e-01  5.131501e-07  1.018756e-06  2.350736e-10  9.436142e-06  8.402038e-10  2.700000e+01  0.000000e+00  0.000000e+00  0.000000e+00  0.000000e+00  0.000000e+00  1.800000e+00  1.800000e+00  0.000000e+00  1.800000e+00  1.800000e+00 
 5.000000e+00  6.702855e-01  6.702855e-01  5.131501e-07  1.018756e-06  2.350740e-10  9.467380e-06  8.391371e-10  2.800000e+01  0.000000e+00  0.000000e+00  0.000000e+00  0.000000e+00  0.000000e+00  1.800000e+00  1.800000e+00  1.800000e+00  0.000000e+00  0.000000e+00 
 5.000000e+00  6.837156e-01  6.837156e-01  5.131501e-07  1.018756e-06  2.350755e-10  9.499813e-06  8.388117e-10  2.900000e+01  0.000000e+00  0.000000e+00  0.000000e+00  0.000000e+00  0.000000e+00  1.800000e+00  1.800000e+00  1.800000e+00  0.000000e+00  1.800000e+00 
 5.000000e+00  6.971459e-01  6.971459e-01  5.131501e-07  1.018756e-06  2.350737e-10  9.534248e-06  8.388351e-10  3.000000e+01  0.000000e+00  0.000000e+00  0.000000e+00  0.000000e+00  0.000000e+00  1.800000e+00  1.800000e+00  1.800000e+00  1.800000e+00  0.000000e+00 
 5.000000e+00  7.100397e-01  7.100397e-01  5.131501e-07  1.018756e-06  2.350754e-10  9.568770e-06  8.386122e-10  3.100000e+01  0.000000e+00  0.000000e+00  0.000000e+00  0.000000e+00  0.000000e+00  1.800000e+00  1.800000e+00  1.800000e+00  1.800000e+00  1.800000e+00 
 5.000000e+00  7.229308e-01  7.229308e-01  5.131501e-07  1.018756e-06  2.350732e-10  9.604216e-06  8.051866e-10  3.200000e+01  0.000000e+00  0.000000e+00  0.000000e+00  0.000000e+00  1.800000e+00  0.000000e+00  0.000000e+00  0.000000e+00  0.000000e+00  0.000000e+00 
 5.000000e+00  7.352869e-01  7.352869e-01  5.131501e-07  1.018756e-06  2.350727e-10  9.638536e-06  8.049402e-10  3.300000e+01  0.000000e+00  0.000000e+00  0.000000e+00  0.000000e+00  1.800000e+00  0.000000e+00  0.000000e+00  0.000000e+00  0.000000e+00  1.800000e+00 
 5.000000e+00  7.476429e-01  7.476429e-01  5.131501e-07  1.018756e-06  2.350760e-10  9.672653e-06  8.039420e-10  3.400000e+01  0.000000e+00  0.000000e+00  0.000000e+00  0.000000e+00  1.800000e+00  0.000000e+00  0.000000e+00  0.000000e+00  1.800000e+00  0.000000e+00 
 5.000000e+00  7.599990e-01  7.599990e-01  5.131501e-07  1.018756e-06  2.350743e-10  9.706011e-06  8.038684e-10  3.500000e+01  0.000000e+00  0.000000e+00  0.000000e+00  0.000000e+00  1.800000e+00  0.000000e+00  0.000000e+00  0.000000e+00  1.800000e+00  1.800000e+00 
 5.000000e+00  7.718183e-01  7.718183e-01  5.131501e-07  1.018756e-06  2.350760e-10  9.736725e-06  8.027462e-10  3.600000e+01  0.000000e+00  0.000000e+00  0.000000e+00  0.000000e+00  1.800000e+00  0.000000e+00  0.000000e+00  1.800000e+00  0.000000e+00  0.000000e+00 
 5.000000e+00  7.830999e-01  7.830999e-01  5.131501e-07  1.018756e-06  2.350775e-10  9.764559e-06  8.026816e-10  3.700000e+01  0.000000e+00  0.000000e+00  0.000000e+00  0.000000e+00  1.800000e+00  0.000000e+00  0.000000e+00  1.800000e+00  0.000000e+00  1.800000e+00 
 5.000000e+00  7.949191e-01  7.949191e-01  5.131501e-07  1.018756e-06  2.350776e-10  9.791816e-06  8.023211e-10  3.800000e+01  0.000000e+00  0.000000e+00  0.000000e+00  0.000000e+00  1.800000e+00  0.000000e+00  0.000000e+00  1.800000e+00  1.800000e+00  0.000000e+00 
 5.000000e+00  8.062006e-01  8.062006e-01  5.131501e-07  1.018756e-06  2.350727e-10  9.815765e-06  8.020945e-10  3.900000e+01  0.000000e+00  0.000000e+00  0.000000e+00  0.000000e+00  1.800000e+00  0.000000e+00  0.000000e+00  1.800000e+00  1.800000e+00  1.800000e+00 
 5.000000e+00  8.169438e-01  8.169438e-01  5.131501e-07  1.018756e-06  2.350761e-10  9.836535e-06  7.964765e-10  4.000000e+01  0.000000e+00  0.000000e+00  0.000000e+00  0.000000e+00  1.800000e+00  0.000000e+00  1.800000e+00  0.000000e+00  0.000000e+00  0.000000e+00 
 5.000000e+00  8.282250e-01  8.282250e-01  5.131501e-07  1.018756e-06  2.350755e-10  9.856119e-06  7.959171e-10  4.100000e+01  0.000000e+00  0.000000e+00  0.000000e+00  0.000000e+00  1.800000e+00  0.000000e+00  1.800000e+00  0.000000e+00  0.000000e+00  1.800000e+00 
 5.000000e+00  8.389685e-01  8.389685e-01  5.131501e-07  1.018756e-06  2.350774e-10  9.872638e-06  7.956866e-10  4.200000e+01  0.000000e+00  0.000000e+00  0.000000e+00  0.000000e+00  1.800000e+00  0.000000e+00  1.800000e+00  0.000000e+00  1.800000e+00  0.000000e+00 
 5.000000e+00  8.491752e-01  8.491752e-01  5.131501e-07  1.018756e-06  2.350769e-10  9.886449e-06  7.955594e-10  4.300000e+01  0.000000e+00  0.000000e+00  0.000000e+00  0.000000e+00  1.800000e+00  0.000000e+00  1.800000e+00  0.000000e+00  1.800000e+00  1.800000e+00 
 5.000000e+00  8.599184e-01  8.599184e-01  5.131501e-07  1.018756e-06  2.350775e-10  9.899086e-06  7.952810e-10  4.400000e+01  0.000000e+00  0.000000e+00  0.000000e+00  0.000000e+00  1.800000e+00  0.000000e+00  1.800000e+00  1.800000e+00  0.000000e+00  0.000000e+00 
 5.000000e+00  8.701251e-01  8.701251e-01  5.131501e-07  1.018756e-06  2.350805e-10  9.909403e-06  7.950972e-10  4.500000e+01  0.000000e+00  0.000000e+00  0.000000e+00  0.000000e+00  1.800000e+00  0.000000e+00  1.800000e+00  1.800000e+00  0.000000e+00  1.800000e+00 
 5.000000e+00  8.803316e-01  8.803316e-01  5.131501e-07  1.018756e-06  2.350766e-10  9.918209e-06  7.952494e-10  4.600000e+01  0.000000e+00  0.000000e+00  0.000000e+00  0.000000e+00  1.800000e+00  0.000000e+00  1.800000e+00  1.800000e+00  1.800000e+00  0.000000e+00 
 5.000000e+00  8.905381e-01  8.905381e-01  5.131501e-07  1.018756e-06  2.350791e-10  9.925635e-06  7.945449e-10  4.700000e+01  0.000000e+00  0.000000e+00  0.000000e+00  0.000000e+00  1.800000e+00  0.000000e+00  1.800000e+00  1.800000e+00  1.800000e+00  1.800000e+00 
 5.000000e+00  9.002044e-01  9.002044e-01  5.131501e-07  1.018756e-06  2.357946e-10  9.931527e-06  7.574632e-10  4.800000e+01  0.000000e+00  0.000000e+00  0.000000e+00  0.000000e+00  1.800000e+00  1.800000e+00  0.000000e+00  0.000000e+00  0.000000e+00  0.000000e+00 
 5.000000e+00  9.104107e-01  9.104107e-01  5.131501e-07  1.018756e-06  2.357959e-10  9.936680e-06  7.571260e-10  4.900000e+01  0.000000e+00  0.000000e+00  0.000000e+00  0.000000e+00  1.800000e+00  1.800000e+00  0.000000e+00  0.000000e+00  0.000000e+00  1.800000e+00 
 5.000000e+00  9.200793e-01  9.200793e-01  5.131501e-07  1.018756e-06  2.357947e-10  9.940667e-06  7.565971e-10  5.000000e+01  0.000000e+00  0.000000e+00  0.000000e+00  0.000000e+00  1.800000e+00  1.800000e+00  0.000000e+00  0.000000e+00  1.800000e+00  0.000000e+00 
 5.000000e+00  9.292103e-01  9.292103e-01  5.131501e-07  1.018756e-06  2.357939e-10  9.943727e-06  7.559278e-10  5.100000e+01  0.000000e+00  0.000000e+00  0.000000e+00  0.000000e+00  1.800000e+00  1.800000e+00  0.000000e+00  0.000000e+00  1.800000e+00  1.800000e+00 
 5.000000e+00  9.388788e-01  9.388788e-01  5.131501e-07  1.018756e-06  2.357946e-10  9.946317e-06  7.546722e-10  5.200000e+01  0.000000e+00  0.000000e+00  0.000000e+00  0.000000e+00  1.800000e+00  1.800000e+00  0.000000e+00  1.800000e+00  0.000000e+00  0.000000e+00 
 5.000000e+00  9.480097e-01  9.480097e-01  5.131501e-07  1.018756e-06  2.357942e-10  9.948228e-06  7.542531e-10  5.300000e+01  0.000000e+00  0.000000e+00  0.000000e+00  0.000000e+00  1.800000e+00  1.800000e+00  0.000000e+00  1.800000e+00  0.000000e+00  1.800000e+00 
 5.000000e+00  9.571406e-01  9.571406e-01  5.131501e-07  1.018756e-06  2.357955e-10  9.949685e-06  7.542939e-10  5.400000e+01  0.000000e+00  0.000000e+00  0.000000e+00  0.000000e+00  1.800000e+00  1.800000e+00  0.000000e+00  1.800000e+00  1.800000e+00  0.000000e+00 
 5.000000e+00  9.662715e-01  9.662715e-01  5.131501e-07  1.018756e-06  2.357983e-10  9.950750e-06  7.538703e-10  5.500000e+01  0.000000e+00  0.000000e+00  0.000000e+00  0.000000e+00  1.800000e+00  1.800000e+00  0.000000e+00  1.800000e+00  1.800000e+00  1.800000e+00 
 5.000000e+00  9.754021e-01  9.754021e-01  5.131501e-07  1.018756e-06  2.357943e-10  9.951479e-06  7.484217e-10  5.600000e+01  0.000000e+00  0.000000e+00  0.000000e+00  0.000000e+00  1.800000e+00  1.800000e+00  1.800000e+00  0.000000e+00  0.000000e+00  0.000000e+00 
 5.000000e+00  9.845329e-01  9.845329e-01  5.131501e-07  1.018756e-06  2.357955e-10  9.951920e-06  7.478459e-10  5.700000e+01  0.000000e+00  0.000000e+00  0.000000e+00  0.000000e+00  1.800000e+00  1.800000e+00  1.800000e+00  0.000000e+00  0.000000e+00  1.800000e+00 
 5.000000e+00  9.931283e-01  9.931283e-01  5.131501e-07  1.018756e-06  2.357963e-10  9.952112e-06  7.469962e-10  5.800000e+01  0.000000e+00  0.000000e+00  0.000000e+00  0.000000e+00  1.800000e+00  1.800000e+00  1.800000e+00  0.000000e+00  1.800000e+00  0.000000e+00 
 5.000000e+00  1.001724e+00  1.001724e+00  5.131501e-07  1.018756e-06  2.357969e-10  9.952117e-06  7.466756e-10  5.900000e+01  0.000000e+00  0.000000e+00  0.000000e+00  0.000000e+00  1.800000e+00  1.800000e+00  1.800000e+00  0.000000e+00  1.800000e+00  1.800000e+00 
 5.000000e+00  1.010319e+00  1.010319e+00  5.131501e-07  1.018756e-06  2.357956e-10  9.951969e-06  7.446217e-10  6.000000e+01  0.000000e+00  0.000000e+00  0.000000e+00  0.000000e+00  1.800000e+00  1.800000e+00  1.800000e+00  1.800000e+00  0.000000e+00  0.000000e+00 
 5.000000e+00  1.018914e+00  1.018914e+00  5.131501e-07  1.018756e-06  2.357968e-10  9.951691e-06  7.440004e-10  6.100000e+01  0.000000e+00  0.000000e+00  0.000000e+00  0.000000e+00  1.800000e+00  1.800000e+00  1.800000e+00  1.800000e+00  0.000000e+00  1.800000e+00 
 5.000000e+00  1.027510e+00  1.027510e+00  5.131501e-07  1.018756e-06  2.357969e-10  9.951305e-06  7.439663e-10  6.200000e+01  0.000000e+00  0.000000e+00  0.000000e+00  0.000000e+00  1.800000e+00  1.800000e+00  1.800000e+00  1.800000e+00  1.800000e+00  0.000000e+00 
 5.000000e+00  1.036105e+00  1.036105e+00  5.131501e-07  1.018756e-06  2.357981e-10  9.950827e-06  7.438623e-10  6.300000e+01  0.000000e+00  0.000000e+00  0.000000e+00  0.000000e+00  1.800000e+00  1.800000e+00  1.800000e+00  1.800000e+00  1.800000e+00  1.800000e+00 
 5.000000e+00  1.044184e+00  1.044184e+00  5.131501e-07  1.018756e-06  2.411340e-10  9.950310e-06  9.058593e-10  6.400000e+01  0.000000e+00  0.000000e+00  0.000000e+00  1.800000e+00  0.000000e+00  0.000000e+00  0.000000e+00  0.000000e+00  0.000000e+00  0.000000e+00 
 5.000000e+00  1.049604e+00  1.049604e+00  5.131501e-07  1.018756e-06  2.411350e-10  9.950106e-06  9.052696e-10  6.500000e+01  0.000000e+00  0.000000e+00  0.000000e+00  1.800000e+00  0.000000e+00  0.000000e+00  0.000000e+00  0.000000e+00  0.000000e+00  1.800000e+00 
 5.000000e+00  1.055577e+00  1.055577e+00  5.131501e-07  1.018756e-06  2.411353e-10  9.949886e-06  9.053006e-10  6.600000e+01  0.000000e+00  0.000000e+00  0.000000e+00  1.800000e+00  0.000000e+00  0.000000e+00  0.000000e+00  0.000000e+00  1.800000e+00  0.000000e+00 
 5.000000e+00  1.062251e+00  1.062251e+00  5.131501e-07  1.018756e-06  2.411335e-10  9.949097e-06  9.046846e-10  6.700000e+01  0.000000e+00  0.000000e+00  0.000000e+00  1.800000e+00  0.000000e+00  0.000000e+00  0.000000e+00  0.000000e+00  1.800000e+00  1.800000e+00 
 5.000000e+00  1.069427e+00  1.069427e+00  5.131501e-07  1.018756e-06  2.411353e-10  9.949241e-06  9.049312e-10  6.800000e+01  0.000000e+00  0.000000e+00  0.000000e+00  1.800000e+00  0.000000e+00  0.000000e+00  0.000000e+00  1.800000e+00  0.000000e+00  0.000000e+00 
 5.000000e+00  1.077637e+00  1.077637e+00  5.131501e-07  1.018756e-06  2.411342e-10  9.947749e-06  9.045491e-10  6.900000e+01  0.000000e+00  0.000000e+00  0.000000e+00  1.800000e+00  0.000000e+00  0.000000e+00  0.000000e+00  1.800000e+00  0.000000e+00  1.800000e+00 
 5.000000e+00  1.086551e+00  1.086551e+00  5.131501e-07  1.018756e-06  2.411356e-10  9.946304e-06  9.044088e-10  7.000000e+01  0.000000e+00  0.000000e+00  0.000000e+00  1.800000e+00  0.000000e+00  0.000000e+00  0.000000e+00  1.800000e+00  1.800000e+00  0.000000e+00 
 5.000000e+00  1.096270e+00  1.096270e+00  5.131501e-07  1.018756e-06  2.411368e-10  9.944085e-06  9.037921e-10  7.100000e+01  0.000000e+00  0.000000e+00  0.000000e+00  1.800000e+00  0.000000e+00  0.000000e+00  0.000000e+00  1.800000e+00  1.800000e+00  1.800000e+00 
 5.000000e+00  1.104804e+00  1.104804e+00  5.131501e-07  1.018756e-06  2.411341e-10  9.946378e-06  8.986822e-10  7.200000e+01  0.000000e+00  0.000000e+00  0.000000e+00  1.800000e+00  0.000000e+00  0.000000e+00  1.800000e+00  0.000000e+00  0.000000e+00  0.000000e+00 
