 v-sweep       d0            d1            d2            d3            d4            d5            d6            d7            d8            d9            load          v-sweep       vmeas#branch  vmeas1#branch vmeas2#branch vmeas3#branch vmeas5#branch vout          ndata        
 0.000000e+00  0.000000e+00  0.000000e+00  0.000000e+00  0.000000e+00  0.000000e+00  0.000000e+00  0.000000e+00  0.000000e+00  0.000000e+00  0.000000e+00  5.633257e-04  0.000000e+00  6.510664e-06  2.135564e-10  7.672144e-07  3.130772e-07 -2.144052e-21  5.633257e-04  0.000000e+00 
 0.000000e+00  1.800000e+00  0.000000e+00  0.000000e+00  0.000000e+00  0.000000e+00  0.000000e+00  0.000000e+00  0.000000e+00  0.000000e+00  0.000000e+00  5.261096e-02  0.000000e+00  6.571737e-06  2.135560e-10  7.672144e-07  3.130772e-07  4.235165e-21  5.261096e-02  1.000000e+00 
 0.000000e+00  0.000000e+00  1.800000e+00  0.000000e+00  0.000000e+00  0.000000e+00  0.000000e+00  0.000000e+00  0.000000e+00  0.000000e+00  0.000000e+00  9.881153e-02  0.000000e+00  6.587860e-06  2.135561e-10  7.672144e-07  3.130772e-07  2.768077e-20  9.881153e-02  2.000000e+00 
 0.000000e+00  1.800000e+00  1.800000e+00  0.000000e+00  0.000000e+00  0.000000e+00  0.000000e+00  0.000000e+00  0.000000e+00  0.000000e+00  0.000000e+00  1.396362e-01  0.000000e+00  6.592648e-06  2.135570e-10  7.672144e-07  3.130771e-07 -1.810202e-19  1.396362e-01  3.000000e+00 
 0.000000e+00  0.000000e+00  0.000000e+00  1.800000e+00  0.000000e+00  0.000000e+00  0.000000e+00  0.000000e+00  0.000000e+00  0.000000e+00  0.000000e+00  1.767006e-01  0.000000e+00  6.594802e-06  2.135524e-10  7.672144e-07  3.130772e-07 -5.929231e-20  1.767006e-01  4.000000e+00 
 0.000000e+00  1.800000e+00  0.000000e+00  1.800000e+00  0.000000e+00  0.000000e+00  0.000000e+00  0.000000e+00  0.000000e+00  0.000000e+00  0.000000e+00  2.110786e-01  0.000000e+00  6.596074e-06  2.135560e-10  7.672144e-07  3.130772e-07 -3.534046e-19  2.110786e-01  5.000000e+00 
 0.000000e+00  0.000000e+00  1.800000e+00  1.800000e+00  0.000000e+00  0.000000e+00  0.000000e+00  0.000000e+00  0.000000e+00  0.000000e+00  0.000000e+00  2.427705e-01  0.000000e+00  6.596962e-06  2.135565e-10  7.672144e-07  3.130772e-07  2.142993e-19  2.427705e-01  6.000000e+00 
 0.000000e+00  1.800000e+00  1.800000e+00  1.800000e+00  0.000000e+00  0.000000e+00  0.000000e+00  0.000000e+00  0.000000e+00  0.000000e+00  0.000000e+00  2.723139e-01  0.000000e+00  6.597684e-06  2.135567e-10  7.672144e-07  3.130772e-07  2.056900e-19  2.723139e-01  7.000000e+00 
 0.000000e+00  0.000000e+00  0.000000e+00  0.000000e+00  1.800000e+00  0.000000e+00  0.000000e+00  0.000000e+00  0.000000e+00  0.000000e+00  0.000000e+00  3.002461e-01  0.000000e+00  6.598374e-06  2.135557e-10  7.672144e-07  3.130772e-07  1.752564e-19  3.002461e-01  8.000000e+00 
 0.000000e+00  1.800000e+00  0.000000e+00  0.000000e+00  1.800000e+00  0.000000e+00  0.000000e+00  0.000000e+00  0.000000e+00  0.000000e+00  0.000000e+00  3.265667e-01  0.000000e+00  6.599103e-06  2.135564e-10  7.672144e-07  3.130772e-07 -3.282054e-19  3.265667e-01  9.000000e+00 
 0.000000e+00  0.000000e+00  1.800000e+00  0.000000e+00  1.800000e+00  0.000000e+00  0.000000e+00  0.000000e+00  0.000000e+00  0.000000e+00  0.000000e+00  3.512765e-01  0.000000e+00  6.599955e-06  2.135553e-10  7.672144e-07  3.130772e-07  4.004679e-19  3.512765e-01  1.000000e+01 
 0.000000e+00  1.800000e+00  1.800000e+00  0.000000e+00  1.800000e+00  0.000000e+00  0.000000e+00  0.000000e+00  0.000000e+00  0.000000e+00  0.000000e+00  3.749111e-01  0.000000e+00  6.601016e-06  2.135571e-10  7.672144e-07  3.130772e-07  1.435853e-19  3.749111e-01  1.100000e+01 
 0.000000e+00  0.000000e+00  0.000000e+00  1.800000e+00  1.800000e+00  0.000000e+00  0.000000e+00  0.000000e+00  0.000000e+00  0.000000e+00  0.000000e+00  3.974713e-01  0.000000e+00  6.602379e-06  2.135550e-10  7.672144e-07  3.130772e-07  4.534207e-19  3.974713e-01  1.200000e+01 
 0.000000e+00  1.800000e+00  0.000000e+00  1.800000e+00  1.800000e+00  0.000000e+00  0.000000e+00  0.000000e+00  0.000000e+00  0.000000e+00  0.000000e+00  4.189573e-01  0.000000e+00  6.604136e-06  2.135582e-10  7.672144e-07  3.130772e-07 -6.363997e-20  4.189573e-01  1.300000e+01 
 0.000000e+00  0.000000e+00  1.800000e+00  1.800000e+00  1.800000e+00  0.000000e+00  0.000000e+00  0.000000e+00  0.000000e+00  0.000000e+00  0.000000e+00  4.399067e-01  0.000000e+00  6.606478e-06  2.135575e-10  7.672144e-07  3.130772e-07 -3.383500e-20  4.399067e-01  1.400000e+01 
 0.000000e+00  1.800000e+00  1.800000e+00  1.800000e+00  1.800000e+00  0.000000e+00  0.000000e+00  0.000000e+00  0.000000e+00  0.000000e+00  0.000000e+00  4.597818e-01  0.000000e+00  6.609486e-06  2.135585e-10  7.672144e-07  3.130771e-07  8.397471e-19  4.597818e-01  1.500000e+01 
 0.000000e+00  0.000000e+00  0.000000e+00  0.000000e+00  0.000000e+00  1.800000e+00  0.000000e+00  0.000000e+00  0.000000e+00  0.000000e+00  0.000000e+00  4.791168e-01  0.000000e+00  6.613378e-06  2.188551e-10  7.672144e-07  3.130772e-07  5.454892e-19  4.791168e-01  1.600000e+01 
 0.000000e+00  1.800000e+00  0.000000e+00  0.000000e+00  0.000000e+00  1.800000e+00  0.000000e+00  0.000000e+00  0.000000e+00  0.000000e+00  0.000000e+00  4.973799e-01  0.000000e+00  6.618282e-06  2.188599e-10  7.672144e-07  3.130772e-07 -7.770270e-19  4.973799e-01  1.700000e+01 
 0.000000e+00  0.000000e+00  1.800000e+00  0.000000e+00  0.000000e+00  1.800000e+00  0.000000e+00  0.000000e+00  0.000000e+00  0.000000e+00  0.000000e+00  5.156429e-01  0.000000e+00  6.624677e-06  2.188620e-10  7.672144e-07  3.130772e-07 -2.773834e-19  5.156429e-01  1.800000e+01 
 0.000000e+00  1.800000e+00  1.800000e+00  0.000000e+00  0.000000e+00  1.800000e+00  0.000000e+00  0.000000e+00  0.000000e+00  0.000000e+00  0.000000e+00  5.328316e-01  0.000000e+00  6.632431e-06  2.188596e-10  7.672144e-07  3.130772e-07  5.776765e-19  5.328316e-01  1.900000e+01 
 0.000000e+00  0.000000e+00  0.000000e+00  1.800000e+00  0.000000e+00  1.800000e+00  0.000000e+00  0.000000e+00  0.000000e+00  0.000000e+00  0.000000e+00  5.500203e-01  0.000000e+00  6.642234e-06  2.188549e-10  7.672144e-07  3.130772e-07 -7.984808e-19  5.500203e-01  2.000000e+01 
 0.000000e+00  1.800000e+00  0.000000e+00  1.800000e+00  0.000000e+00  1.800000e+00  0.000000e+00  0.000000e+00  0.000000e+00  0.000000e+00  0.000000e+00  5.661349e-01  0.000000e+00  6.653672e-06  2.188622e-10  7.672144e-07  3.130772e-07 -2.002571e-19  5.661349e-01  2.100000e+01 
 0.000000e+00  0.000000e+00  1.800000e+00  1.800000e+00  0.000000e+00  1.800000e+00  0.000000e+00  0.000000e+00  0.000000e+00  0.000000e+00  0.000000e+00  5.822494e-01  0.000000e+00  6.667626e-06  2.188609e-10  7.672144e-07  3.130771e-07 -6.802204e-19  5.822494e-01  2.200000e+01 
 0.000000e+00  1.800000e+00  1.800000e+00  1.800000e+00  0.000000e+00  1.800000e+00  0.000000e+00  0.000000e+00  0.000000e+00  0.000000e+00  0.000000e+00  5.978265e-01  0.000000e+00  6.683822e-06  2.188638e-10  7.672144e-07  3.130772e-07  5.640710e-19  5.978265e-01  2.300000e+01 
 0.000000e+00  0.000000e+00  0.000000e+00  0.000000e+00  1.800000e+00  1.800000e+00  0.000000e+00  0.000000e+00  0.000000e+00  0.000000e+00  0.000000e+00  6.134032e-01  0.000000e+00  6.702942e-06  2.188605e-10  7.672144e-07  3.130772e-07 -7.580085e-19  6.134032e-01  2.400000e+01 
 0.000000e+00  1.800000e+00  0.000000e+00  0.000000e+00  1.800000e+00  1.800000e+00  0.000000e+00  0.000000e+00  0.000000e+00  0.000000e+00  0.000000e+00  6.279063e-01  0.000000e+00  6.723530e-06  2.188624e-10  7.672144e-07  3.130772e-07 -1.174954e-18  6.279063e-01  2.500000e+01 
 0.000000e+00  0.000000e+00  1.800000e+00  0.000000e+00  1.800000e+00  1.800000e+00  0.000000e+00  0.000000e+00  0.000000e+00  0.000000e+00  0.000000e+00  6.424097e-01  0.000000e+00  6.746860e-06  2.188624e-10  7.672144e-07  3.130772e-07 -5.591741e-20  6.424097e-01  2.600000e+01 
 0.000000e+00  1.800000e+00  1.800000e+00  0.000000e+00  1.800000e+00  1.800000e+00  0.000000e+00  0.000000e+00  0.000000e+00  0.000000e+00  0.000000e+00  6.563756e-01  0.000000e+00  6.771869e-06  2.188593e-10  7.672144e-07  3.130772e-07  1.254608e-18  6.563756e-01  2.700000e+01 
 0.000000e+00  0.000000e+00  0.000000e+00  1.800000e+00  1.800000e+00  1.800000e+00  0.000000e+00  0.000000e+00  0.000000e+00  0.000000e+00  0.000000e+00  6.703417e-01  0.000000e+00  6.799224e-06  2.188620e-10  7.672144e-07  3.130772e-07  4.162174e-19  6.703417e-01  2.800000e+01 
 0.000000e+00  1.800000e+00  0.000000e+00  1.800000e+00  1.800000e+00  1.800000e+00  0.000000e+00  0.000000e+00  0.000000e+00  0.000000e+00  0.000000e+00  6.837715e-01  0.000000e+00  6.827483e-06  2.188617e-10  7.672144e-07  3.130772e-07  1.162539e-18  6.837715e-01  2.900000e+01 
 0.000000e+00  0.000000e+00  1.800000e+00  1.800000e+00  1.800000e+00  1.800000e+00  0.000000e+00  0.000000e+00  0.000000e+00  0.000000e+00  0.000000e+00  6.972015e-01  0.000000e+00  6.857303e-06  2.188618e-10  7.672144e-07  3.130772e-07 -1.092097e-18  6.972015e-01  3.000000e+01 
 0.000000e+00  1.800000e+00  1.800000e+00  1.800000e+00  1.800000e+00  1.800000e+00  0.000000e+00  0.000000e+00  0.000000e+00  0.000000e+00  0.000000e+00  7.100951e-01  0.000000e+00  6.886957e-06  2.188615e-10  7.672144e-07  3.130771e-07 -8.777908e-19  7.100951e-01  3.100000e+01 
 0.000000e+00  0.000000e+00  0.000000e+00  0.000000e+00  0.000000e+00  0.000000e+00  1.800000e+00  0.000000e+00  0.000000e+00  0.000000e+00  0.000000e+00  7.229860e-01  0.000000e+00  6.917079e-06  2.135586e-10  7.672144e-07  3.130772e-07  9.321399e-19  7.229860e-01  3.200000e+01 
 0.000000e+00  1.800000e+00  0.000000e+00  0.000000e+00  0.000000e+00  0.000000e+00  1.800000e+00  0.000000e+00  0.000000e+00  0.000000e+00  0.000000e+00  7.353420e-01  0.000000e+00  6.945912e-06  2.135592e-10  7.672144e-07  3.130772e-07  1.990322e-18  7.353420e-01  3.300000e+01 
 0.000000e+00  0.000000e+00  1.800000e+00  0.000000e+00  0.000000e+00  0.000000e+00  1.800000e+00  0.000000e+00  0.000000e+00  0.000000e+00  0.000000e+00  7.476980e-01  0.000000e+00  6.974142e-06  2.135604e-10  7.672144e-07  3.130772e-07  1.940202e-18  7.476980e-01  3.400000e+01 
 0.000000e+00  1.800000e+00  1.800000e+00  0.000000e+00  0.000000e+00  0.000000e+00  1.800000e+00  0.000000e+00  0.000000e+00  0.000000e+00  0.000000e+00  7.600540e-01  0.000000e+00  7.001224e-06  2.135604e-10  7.672144e-07  3.130772e-07  6.742382e-19  7.600540e-01  3.500000e+01 
 0.000000e+00  0.000000e+00  0.000000e+00  1.800000e+00  0.000000e+00  0.000000e+00  1.800000e+00  0.000000e+00  0.000000e+00  0.000000e+00  0.000000e+00  7.718732e-01  0.000000e+00  7.025602e-06  2.135577e-10  7.672144e-07  3.130772e-07  2.332338e-18  7.718732e-01  3.600000e+01 
 0.000000e+00  1.800000e+00  0.000000e+00  1.800000e+00  0.000000e+00  0.000000e+00  1.800000e+00  0.000000e+00  0.000000e+00  0.000000e+00  0.000000e+00  7.831548e-01  0.000000e+00  7.047131e-06  2.135593e-10  7.672144e-07  3.130772e-07 -2.611224e-18  7.831548e-01  3.700000e+01 
 0.000000e+00  0.000000e+00  1.800000e+00  1.800000e+00  0.000000e+00  0.000000e+00  1.800000e+00  0.000000e+00  0.000000e+00  0.000000e+00  0.000000e+00  7.949739e-01  0.000000e+00  7.067595e-06  2.135604e-10  7.672144e-07  3.130772e-07  4.582640e-18  7.949739e-01  3.800000e+01 
 0.000000e+00  1.800000e+00  1.800000e+00  1.800000e+00  0.000000e+00  0.000000e+00  1.800000e+00  0.000000e+00  0.000000e+00  0.000000e+00  0.000000e+00  8.062552e-01  0.000000e+00  7.084995e-06  2.135620e-10  7.672144e-07  3.130772e-07  2.938880e-18  8.062552e-01  3.900000e+01 
 0.000000e+00  0.000000e+00  0.000000e+00  0.000000e+00  1.800000e+00  0.000000e+00  1.800000e+00  0.000000e+00  0.000000e+00  0.000000e+00  0.000000e+00  8.169983e-01  0.000000e+00  7.099573e-06  2.135602e-10  7.672144e-07  3.130771e-07  3.634824e-18  8.169983e-01  4.000000e+01 
 0.000000e+00  1.800000e+00  0.000000e+00  0.000000e+00  1.800000e+00  0.000000e+00  1.800000e+00  0.000000e+00  0.000000e+00  0.000000e+00  0.000000e+00  8.282794e-01  0.000000e+00  7.112841e-06  2.135612e-10  7.672144e-07  3.130772e-07 -3.490226e-18  8.282794e-01  4.100000e+01 
 0.000000e+00  0.000000e+00  1.800000e+00  0.000000e+00  1.800000e+00  0.000000e+00  1.800000e+00  0.000000e+00  0.000000e+00  0.000000e+00  0.000000e+00  8.390227e-01  0.000000e+00  7.123633e-06  2.135606e-10  7.672144e-07  3.130772e-07 -2.876537e-18  8.390227e-01  4.200000e+01 
 0.000000e+00  1.800000e+00  1.800000e+00  0.000000e+00  1.800000e+00  0.000000e+00  1.800000e+00  0.000000e+00  0.000000e+00  0.000000e+00  0.000000e+00  8.492293e-01  0.000000e+00  7.132346e-06  2.135581e-10  7.672144e-07  3.130772e-07  5.959400e-18  8.492293e-01  4.300000e+01 
 0.000000e+00  0.000000e+00  0.000000e+00  1.800000e+00  1.800000e+00  0.000000e+00  1.800000e+00  0.000000e+00  0.000000e+00  0.000000e+00  0.000000e+00  8.599724e-01  0.000000e+00  7.140048e-06  2.135617e-10  7.672144e-07  3.130771e-07  5.296173e-18  8.599724e-01  4.400000e+01 
 0.000000e+00  1.800000e+00  0.000000e+00  1.800000e+00  1.800000e+00  0.000000e+00  1.800000e+00  0.000000e+00  0.000000e+00  0.000000e+00  0.000000e+00  8.701788e-01  0.000000e+00  7.146128e-06  2.135631e-10  7.672144e-07  3.130771e-07  4.955341e-18  8.701788e-01  4.500000e+01 
 0.000000e+00  0.000000e+00  1.800000e+00  1.800000e+00  1.800000e+00  0.000000e+00  1.800000e+00  0.000000e+00  0.000000e+00  0.000000e+00  0.000000e+00  8.803852e-01  0.000000e+00  7.151137e-06  2.135607e-10  7.672144e-07  3.130772e-07 -7.038645e-19  8.803852e-01  4.600000e+01 
 0.000000e+00  1.800000e+00  1.800000e+00  1.800000e+00  1.800000e+00  0.000000e+00  1.800000e+00  0.000000e+00  0.000000e+00  0.000000e+00  0.000000e+00  8.905916e-01  0.000000e+00  7.155219e-06  2.135616e-10  7.672144e-07  3.130771e-07 -7.031366e-19  8.905916e-01  4.700000e+01 
 0.000000e+00  0.000000e+00  0.000000e+00  0.000000e+00  0.000000e+00  1.800000e+00  1.800000e+00  0.000000e+00  0.000000e+00  0.000000e+00  0.000000e+00  9.002577e-01  0.000000e+00  7.158317e-06  2.188562e-10  7.672144e-07  3.130772e-07  2.889289e-18  9.002577e-01  4.800000e+01 
 0.000000e+00  1.800000e+00  0.000000e+00  0.000000e+00  0.000000e+00  1.800000e+00  1.800000e+00  0.000000e+00  0.000000e+00  0.000000e+00  0.000000e+00  9.104639e-01  0.000000e+00  7.160922e-06  2.188579e-10  7.672144e-07  3.130772e-07 -2.066853e-18  9.104639e-01  4.900000e+01 
 0.000000e+00  0.000000e+00  1.800000e+00  0.000000e+00  0.000000e+00  1.800000e+00  1.800000e+00  0.000000e+00  0.000000e+00  0.000000e+00  0.000000e+00  9.201324e-01  0.000000e+00  7.162841e-06  2.188587e-10  7.672144e-07  3.130772e-07  6.117014e-18  9.201324e-01  5.000000e+01 
 0.000000e+00  1.800000e+00  1.800000e+00  0.000000e+00  0.000000e+00  1.800000e+00  1.800000e+00  0.000000e+00  0.000000e+00  0.000000e+00  0.000000e+00  9.292632e-01  0.000000e+00  7.164232e-06  2.188600e-10  7.672144e-07  3.130772e-07  4.772567e-19  9.292632e-01  5.100000e+01 
 0.000000e+00  0.000000e+00  0.000000e+00  1.800000e+00  0.000000e+00  1.800000e+00  1.800000e+00  0.000000e+00  0.000000e+00  0.000000e+00  0.000000e+00  9.389316e-01  0.000000e+00  7.165314e-06  2.188594e-10  7.672144e-07  3.130772e-07 -6.219856e-18  9.389316e-01  5.200000e+01 
 0.000000e+00  1.800000e+00  0.000000e+00  1.800000e+00  0.000000e+00  1.800000e+00  1.800000e+00  0.000000e+00  0.000000e+00  0.000000e+00  0.000000e+00  9.480624e-01  0.000000e+00  7.166030e-06  2.188580e-10  7.672144e-07  3.130772e-07 -4.244475e-18  9.480624e-01  5.300000e+01 
 0.000000e+00  0.000000e+00  1.800000e+00  1.800000e+00  0.000000e+00  1.800000e+00  1.800000e+00  0.000000e+00  0.000000e+00  0.000000e+00  0.000000e+00  9.571932e-01  0.000000e+00  7.166492e-06  2.188601e-10  7.672144e-07  3.130772e-07  3.829390e-18  9.571932e-01  5.400000e+01 
 0.000000e+00  1.800000e+00  1.800000e+00  1.800000e+00  0.000000e+00  1.800000e+00  1.800000e+00  0.000000e+00  0.000000e+00  0.000000e+00  0.000000e+00  9.663241e-01  0.000000e+00  7.166743e-06  2.188598e-10  7.672144e-07  3.130772e-07 -5.267221e-18  9.663241e-01  5.500000e+01 
 0.000000e+00  0.000000e+00  0.000000e+00  0.000000e+00  1.800000e+00  1.800000e+00  1.800000e+00  0.000000e+00  0.000000e+00  0.000000e+00  0.000000e+00  9.754545e-01  0.000000e+00  7.166813e-06  2.188604e-10  7.672144e-07  3.130771e-07  5.435688e-18  9.754545e-01  5.600000e+01 
 0.000000e+00  1.800000e+00  0.000000e+00  0.000000e+00  1.800000e+00  1.800000e+00  1.800000e+00  0.000000e+00  0.000000e+00  0.000000e+00  0.000000e+00  9.845853e-01  0.000000e+00  7.166741e-06  2.188595e-10  7.672144e-07  3.130772e-07 -1.940956e-18  9.845853e-01  5.700000e+01 
 0.000000e+00  0.000000e+00  1.800000e+00  0.000000e+00  1.800000e+00  1.800000e+00  1.800000e+00  0.000000e+00  0.000000e+00  0.000000e+00  0.000000e+00  9.931805e-01  0.000000e+00  7.166567e-06  2.188594e-10  7.672144e-07  3.130772e-07 -3.016655e-18  9.931805e-01  5.800000e+01 
 0.000000e+00  1.800000e+00  1.800000e+00  0.000000e+00  1.800000e+00  1.800000e+00  1.800000e+00  0.000000e+00  0.000000e+00  0.000000e+00  0.000000e+00  1.001776e+00  0.000000e+00  7.166302e-06  2.188603e-10  7.672144e-07  3.130772e-07 -7.224470e-18  1.001776e+00  5.900000e+01 
 0.000000e+00  0.000000e+00  0.000000e+00  1.800000e+00  1.800000e+00  1.800000e+00  1.800000e+00  0.000000e+00  0.000000e+00  0.000000e+00  0.000000e+00  1.010371e+00  0.000000e+00  7.165967e-06  2.188585e-10  7.672144e-07  3.130772e-07 -1.444059e-18  1.010371e+00  6.000000e+01 
 0.000000e+00  1.800000e+00  0.000000e+00  1.800000e+00  1.800000e+00  1.800000e+00  1.800000e+00  0.000000e+00  0.000000e+00  0.000000e+00  0.000000e+00  1.018966e+00  0.000000e+00  7.165568e-06  2.188581e-10  7.672144e-07  3.130772e-07 -1.075181e-17  1.018966e+00  6.100000e+01 
 0.000000e+00  0.000000e+00  1.800000e+00  1.800000e+00  1.800000e+00  1.800000e+00  1.800000e+00  0.000000e+00  0.000000e+00  0.000000e+00  0.000000e+00  1.027561e+00  0.000000e+00  7.165127e-06  2.188596e-10  7.672144e-07  3.130772e-07  4.541188e-18  1.027561e+00  6.200000e+01 
 0.000000e+00  1.800000e+00  1.800000e+00  1.800000e+00  1.800000e+00  1.800000e+00  1.800000e+00  0.000000e+00  0.000000e+00  0.000000e+00  0.000000e+00  1.036157e+00  0.000000e+00  7.164645e-06  2.188600e-10  7.672144e-07  3.130772e-07 -4.184343e-18  1.036157e+00  6.300000e+01 
 0.000000e+00  0.000000e+00  0.000000e+00  0.000000e+00  0.000000e+00  0.000000e+00  0.000000e+00  1.800000e+00  0.000000e+00  0.000000e+00  0.000000e+00  1.044236e+00  0.000000e+00  7.164284e-06  2.191263e-10  7.672144e-07  3.130772e-07 -8.884429e-18  1.044236e+00  6.400000e+01 
 0.000000e+00  1.800000e+00  0.000000e+00  0.000000e+00  0.000000e+00  0.000000e+00  0.000000e+00  1.800000e+00  0.000000e+00  0.000000e+00  0.000000e+00  1.049550e+00  0.000000e+00  7.164849e-06  2.191361e-10  7.672144e-07  3.130772e-07  4.064349e-18  1.049550e+00  6.500000e+01 
 0.000000e+00  0.000000e+00  1.800000e+00  0.000000e+00  0.000000e+00  0.000000e+00  0.000000e+00  1.800000e+00  0.000000e+00  0.000000e+00  0.000000e+00  1.055416e+00  0.000000e+00  7.165305e-06  2.191361e-10  7.672144e-07  3.130772e-07 -4.253985e-18  1.055416e+00  6.600000e+01 
 0.000000e+00  1.800000e+00  1.800000e+00  0.000000e+00  0.000000e+00  0.000000e+00  0.000000e+00  1.800000e+00  0.000000e+00  0.000000e+00  0.000000e+00  1.061998e+00  0.000000e+00  7.165000e-06  2.191341e-10  7.672144e-07  3.130772e-07 -9.831048e-18  1.061998e+00  6.700000e+01 
 0.000000e+00  0.000000e+00  0.000000e+00  1.800000e+00  0.000000e+00  0.000000e+00  0.000000e+00  1.800000e+00  0.000000e+00  0.000000e+00  0.000000e+00  1.069109e+00  0.000000e+00  7.165566e-06  2.191358e-10  7.672144e-07  3.130772e-07 -3.823560e-18  1.069109e+00  6.800000e+01 
 0.000000e+00  1.800000e+00  0.000000e+00  1.800000e+00  0.000000e+00  0.000000e+00  0.000000e+00  1.800000e+00  0.000000e+00  0.000000e+00  0.000000e+00  1.077292e+00  0.000000e+00  7.164075e-06  2.191366e-10  7.672144e-07  3.130772e-07  5.183273e-18  1.077292e+00  6.900000e+01 
