 v-sweep       d0            d1            d2            d3            d4            d5            d6            d7            d8            d9            load          v-sweep       vmeas#branch  vmeas1#branch vmeas2#branch vmeas3#branch vmeas5#branch vout          ndata        
 0.000000e+00  0.000000e+00  0.000000e+00  0.000000e+00  0.000000e+00  0.000000e+00  0.000000e+00  0.000000e+00  0.000000e+00  0.000000e+00  0.000000e+00  1.381808e-03  0.000000e+00  5.916767e-06  5.194967e-10  6.872264e-07  2.828388e-07 -1.588187e-21  1.381808e-03  0.000000e+00 
 0.000000e+00  1.800000e+00  0.000000e+00  0.000000e+00  0.000000e+00  0.000000e+00  0.000000e+00  0.000000e+00  0.000000e+00  0.000000e+00  0.000000e+00  5.269818e-02  0.000000e+00  5.964942e-06  5.194980e-10  6.872264e-07  2.828388e-07  4.290751e-20  5.269818e-02  1.000000e+00 
 0.000000e+00  0.000000e+00  1.800000e+00  0.000000e+00  0.000000e+00  0.000000e+00  0.000000e+00  0.000000e+00  0.000000e+00  0.000000e+00  0.000000e+00  9.886868e-02  0.000000e+00  5.978022e-06  5.194996e-10  6.872264e-07  2.828388e-07  1.057203e-19  9.886868e-02  2.000000e+00 
 0.000000e+00  1.800000e+00  1.800000e+00  0.000000e+00  0.000000e+00  0.000000e+00  0.000000e+00  0.000000e+00  0.000000e+00  0.000000e+00  0.000000e+00  1.396844e-01  0.000000e+00  5.981843e-06  5.194985e-10  6.872264e-07  2.828388e-07 -1.204243e-19  1.396844e-01  3.000000e+00 
 0.000000e+00  0.000000e+00  0.000000e+00  1.800000e+00  0.000000e+00  0.000000e+00  0.000000e+00  0.000000e+00  0.000000e+00  0.000000e+00  0.000000e+00  1.767442e-01  0.000000e+00  5.983699e-06  5.194992e-10  6.872264e-07  2.828388e-07  5.684385e-21  1.767442e-01  4.000000e+00 
 0.000000e+00  1.800000e+00  0.000000e+00  1.800000e+00  0.000000e+00  0.000000e+00  0.000000e+00  0.000000e+00  0.000000e+00  0.000000e+00  0.000000e+00  2.111192e-01  0.000000e+00  5.985162e-06  5.194989e-10  6.872264e-07  2.828388e-07 -1.548284e-19  2.111192e-01  5.000000e+00 
 0.000000e+00  0.000000e+00  1.800000e+00  1.800000e+00  0.000000e+00  0.000000e+00  0.000000e+00  0.000000e+00  0.000000e+00  0.000000e+00  0.000000e+00  2.428087e-01  0.000000e+00  5.986789e-06  5.194993e-10  6.872264e-07  2.828388e-07  1.817812e-19  2.428087e-01  6.000000e+00 
 0.000000e+00  1.800000e+00  1.800000e+00  1.800000e+00  0.000000e+00  0.000000e+00  0.000000e+00  0.000000e+00  0.000000e+00  0.000000e+00  0.000000e+00  2.723500e-01  0.000000e+00  5.988943e-06  5.194999e-10  6.872264e-07  2.828388e-07  2.871839e-19  2.723500e-01  7.000000e+00 
 0.000000e+00  0.000000e+00  0.000000e+00  0.000000e+00  1.800000e+00  0.000000e+00  0.000000e+00  0.000000e+00  0.000000e+00  0.000000e+00  0.000000e+00  3.002808e-01  0.000000e+00  5.991996e-06  5.194996e-10  6.872264e-07  2.828388e-07  3.976026e-19  3.002808e-01  8.000000e+00 
 0.000000e+00  1.800000e+00  0.000000e+00  0.000000e+00  1.800000e+00  0.000000e+00  0.000000e+00  0.000000e+00  0.000000e+00  0.000000e+00  0.000000e+00  3.266001e-01  0.000000e+00  5.996323e-06  5.194978e-10  6.872264e-07  2.828388e-07 -2.456396e-20  3.266001e-01  9.000000e+00 
 0.000000e+00  0.000000e+00  1.800000e+00  0.000000e+00  1.800000e+00  0.000000e+00  0.000000e+00  0.000000e+00  0.000000e+00  0.000000e+00  0.000000e+00  3.513086e-01  0.000000e+00  6.002292e-06  5.194973e-10  6.872264e-07  2.828388e-07 -1.890803e-19  3.513086e-01  1.000000e+01 
 0.000000e+00  1.800000e+00  1.800000e+00  0.000000e+00  1.800000e+00  0.000000e+00  0.000000e+00  0.000000e+00  0.000000e+00  0.000000e+00  0.000000e+00  3.749420e-01  0.000000e+00  6.010454e-06  5.195014e-10  6.872264e-07  2.828388e-07  2.053923e-19  3.749420e-01  1.100000e+01 
 0.000000e+00  0.000000e+00  0.000000e+00  1.800000e+00  1.800000e+00  0.000000e+00  0.000000e+00  0.000000e+00  0.000000e+00  0.000000e+00  0.000000e+00  3.975013e-01  0.000000e+00  6.021285e-06  5.194974e-10  6.872264e-07  2.828388e-07  5.502075e-19  3.975013e-01  1.200000e+01 
 0.000000e+00  1.800000e+00  0.000000e+00  1.800000e+00  1.800000e+00  0.000000e+00  0.000000e+00  0.000000e+00  0.000000e+00  0.000000e+00  0.000000e+00  4.189867e-01  0.000000e+00  6.035164e-06  5.194999e-10  6.872264e-07  2.828388e-07 -4.525141e-19  4.189867e-01  1.300000e+01 
 0.000000e+00  0.000000e+00  1.800000e+00  1.800000e+00  1.800000e+00  0.000000e+00  0.000000e+00  0.000000e+00  0.000000e+00  0.000000e+00  0.000000e+00  4.399359e-01  0.000000e+00  6.052843e-06  5.194993e-10  6.872264e-07  2.828388e-07  2.737438e-19  4.399359e-01  1.400000e+01 
 0.000000e+00  1.800000e+00  1.800000e+00  1.800000e+00  1.800000e+00  0.000000e+00  0.000000e+00  0.000000e+00  0.000000e+00  0.000000e+00  0.000000e+00  4.598113e-01  0.000000e+00  6.074028e-06  5.195005e-10  6.872264e-07  2.828388e-07 -3.149374e-19  4.598113e-01  1.500000e+01 
 0.000000e+00  0.000000e+00  0.000000e+00  0.000000e+00  0.000000e+00  1.800000e+00  0.000000e+00  0.000000e+00  0.000000e+00  0.000000e+00  0.000000e+00  4.791531e-01  0.000000e+00  6.099192e-06  5.213648e-10  6.872264e-07  2.828388e-07  2.984004e-19  4.791531e-01  1.600000e+01 
 0.000000e+00  1.800000e+00  0.000000e+00  0.000000e+00  0.000000e+00  1.800000e+00  0.000000e+00  0.000000e+00  0.000000e+00  0.000000e+00  0.000000e+00  4.974181e-01  0.000000e+00  6.127303e-06  5.213653e-10  6.872264e-07  2.828388e-07 -2.348333e-19  4.974181e-01  1.700000e+01 
 0.000000e+00  0.000000e+00  1.800000e+00  0.000000e+00  0.000000e+00  1.800000e+00  0.000000e+00  0.000000e+00  0.000000e+00  0.000000e+00  0.000000e+00  5.156838e-01  0.000000e+00  6.159509e-06  5.213643e-10  6.872264e-07  2.828388e-07  5.522655e-19  5.156838e-01  1.800000e+01 
 0.000000e+00  1.800000e+00  1.800000e+00  0.000000e+00  0.000000e+00  1.800000e+00  0.000000e+00  0.000000e+00  0.000000e+00  0.000000e+00  0.000000e+00  5.328760e-01  0.000000e+00  6.193234e-06  5.213669e-10  6.872264e-07  2.828388e-07 -2.430588e-19  5.328760e-01  1.900000e+01 
 0.000000e+00  0.000000e+00  0.000000e+00  1.800000e+00  0.000000e+00  1.800000e+00  0.000000e+00  0.000000e+00  0.000000e+00  0.000000e+00  0.000000e+00  5.500687e-01  0.000000e+00  6.229686e-06  5.213643e-10  6.872264e-07  2.828388e-07  1.411468e-18  5.500687e-01  2.000000e+01 
 0.000000e+00  1.800000e+00  0.000000e+00  1.800000e+00  0.000000e+00  1.800000e+00  0.000000e+00  0.000000e+00  0.000000e+00  0.000000e+00  0.000000e+00  5.661877e-01  0.000000e+00  6.265597e-06  5.213662e-10  6.872264e-07  2.828388e-07 -8.175853e-20  5.661877e-01  2.100000e+01 
 0.000000e+00  0.000000e+00  1.800000e+00  1.800000e+00  0.000000e+00  1.800000e+00  0.000000e+00  0.000000e+00  0.000000e+00  0.000000e+00  0.000000e+00  5.823069e-01  0.000000e+00  6.302268e-06  5.213661e-10  6.872264e-07  2.828388e-07  1.217180e-18  5.823069e-01  2.200000e+01 
 0.000000e+00  1.800000e+00  1.800000e+00  1.800000e+00  0.000000e+00  1.800000e+00  0.000000e+00  0.000000e+00  0.000000e+00  0.000000e+00  0.000000e+00  5.978885e-01  0.000000e+00  6.337417e-06  5.213656e-10  6.872264e-07  2.828388e-07 -5.284030e-19  5.978885e-01  2.300000e+01 
 0.000000e+00  0.000000e+00  0.000000e+00  0.000000e+00  1.800000e+00  1.800000e+00  0.000000e+00  0.000000e+00  0.000000e+00  0.000000e+00  0.000000e+00  6.134697e-01  0.000000e+00  6.371187e-06  5.213643e-10  6.872264e-07  2.828388e-07 -1.177588e-18  6.134697e-01  2.400000e+01 
 0.000000e+00  1.800000e+00  0.000000e+00  0.000000e+00  1.800000e+00  1.800000e+00  0.000000e+00  0.000000e+00  0.000000e+00  0.000000e+00  0.000000e+00  6.279765e-01  0.000000e+00  6.400466e-06  5.213663e-10  6.872264e-07  2.828388e-07  1.519114e-18  6.279765e-01  2.500000e+01 
 0.000000e+00  0.000000e+00  1.800000e+00  0.000000e+00  1.800000e+00  1.800000e+00  0.000000e+00  0.000000e+00  0.000000e+00  0.000000e+00  0.000000e+00  6.424829e-01  0.000000e+00  6.426911e-06  5.213651e-10  6.872264e-07  2.828388e-07 -2.806128e-19  6.424829e-01  2.600000e+01 
 0.000000e+00  1.800000e+00  1.800000e+00  0.000000e+00  1.800000e+00  1.800000e+00  0.000000e+00  0.000000e+00  0.000000e+00  0.000000e+00  0.000000e+00  6.564512e-01  0.000000e+00  6.449216e-06  5.213657e-10  6.872264e-07  2.828388e-07 -4.864418e-19  6.564512e-01  2.700000e+01 
 0.000000e+00  0.000000e+00  0.000000e+00  1.800000e+00  1.800000e+00  1.800000e+00  0.000000e+00  0.000000e+00  0.000000e+00  0.000000e+00  0.000000e+00  6.704190e-01  0.000000e+00  6.468199e-06  5.213651e-10  6.872264e-07  2.828388e-07 -1.721197e-20  6.704190e-01  2.800000e+01 
 0.000000e+00  1.800000e+00  0.000000e+00  1.800000e+00  1.800000e+00  1.800000e+00  0.000000e+00  0.000000e+00  0.000000e+00  0.000000e+00  0.000000e+00  6.838497e-01  0.000000e+00  6.483331e-06  5.213657e-10  6.872264e-07  2.828388e-07 -1.821386e-18  6.838497e-01  2.900000e+01 
 0.000000e+00  0.000000e+00  1.800000e+00  1.800000e+00  1.800000e+00  1.800000e+00  0.000000e+00  0.000000e+00  0.000000e+00  0.000000e+00  0.000000e+00  6.972801e-01  0.000000e+00  6.495596e-06  5.213657e-10  6.872264e-07  2.828388e-07 -1.514502e-18  6.972801e-01  3.000000e+01 
 0.000000e+00  1.800000e+00  1.800000e+00  1.800000e+00  1.800000e+00  1.800000e+00  0.000000e+00  0.000000e+00  0.000000e+00  0.000000e+00  0.000000e+00  7.101734e-01  0.000000e+00  6.504949e-06  5.213664e-10  6.872264e-07  2.828388e-07 -1.068109e-18  7.101734e-01  3.100000e+01 
 0.000000e+00  0.000000e+00  0.000000e+00  0.000000e+00  0.000000e+00  0.000000e+00  1.800000e+00  0.000000e+00  0.000000e+00  0.000000e+00  0.000000e+00  7.230619e-01  0.000000e+00  6.512210e-06  5.195000e-10  6.872264e-07  2.828388e-07  1.422751e-19  7.230619e-01  3.200000e+01 
 0.000000e+00  1.800000e+00  0.000000e+00  0.000000e+00  0.000000e+00  0.000000e+00  1.800000e+00  0.000000e+00  0.000000e+00  0.000000e+00  0.000000e+00  7.354170e-01  0.000000e+00  6.517549e-06  5.194989e-10  6.872264e-07  2.828388e-07  9.348994e-19  7.354170e-01  3.300000e+01 
 0.000000e+00  0.000000e+00  1.800000e+00  0.000000e+00  0.000000e+00  0.000000e+00  1.800000e+00  0.000000e+00  0.000000e+00  0.000000e+00  0.000000e+00  7.477719e-01  0.000000e+00  6.521541e-06  5.194989e-10  6.872264e-07  2.828388e-07  2.904264e-19  7.477719e-01  3.400000e+01 
 0.000000e+00  1.800000e+00  1.800000e+00  0.000000e+00  0.000000e+00  0.000000e+00  1.800000e+00  0.000000e+00  0.000000e+00  0.000000e+00  0.000000e+00  7.601266e-01  0.000000e+00  6.524421e-06  5.195014e-10  6.872264e-07  2.828388e-07  7.694897e-19  7.601266e-01  3.500000e+01 
 0.000000e+00  0.000000e+00  0.000000e+00  1.800000e+00  0.000000e+00  0.000000e+00  1.800000e+00  0.000000e+00  0.000000e+00  0.000000e+00  0.000000e+00  7.719446e-01  0.000000e+00  6.526330e-06  5.195002e-10  6.872264e-07  2.828388e-07 -1.050718e-18  7.719446e-01  3.600000e+01 
 0.000000e+00  1.800000e+00  0.000000e+00  1.800000e+00  0.000000e+00  0.000000e+00  1.800000e+00  0.000000e+00  0.000000e+00  0.000000e+00  0.000000e+00  7.832250e-01  0.000000e+00  6.527528e-06  5.195014e-10  6.872264e-07  2.828388e-07  5.424584e-19  7.832250e-01  3.700000e+01 
 0.000000e+00  0.000000e+00  1.800000e+00  1.800000e+00  0.000000e+00  0.000000e+00  1.800000e+00  0.000000e+00  0.000000e+00  0.000000e+00  0.000000e+00  7.950428e-01  0.000000e+00  6.528264e-06  5.195014e-10  6.872264e-07  2.828388e-07  1.366158e-18  7.950428e-01  3.800000e+01 
 0.000000e+00  1.800000e+00  1.800000e+00  1.800000e+00  0.000000e+00  0.000000e+00  1.800000e+00  0.000000e+00  0.000000e+00  0.000000e+00  0.000000e+00  8.063231e-01  0.000000e+00  6.528580e-06  5.195003e-10  6.872264e-07  2.828388e-07 -1.859621e-18  8.063231e-01  3.900000e+01 
 0.000000e+00  0.000000e+00  0.000000e+00  0.000000e+00  1.800000e+00  0.000000e+00  1.800000e+00  0.000000e+00  0.000000e+00  0.000000e+00  0.000000e+00  8.170653e-01  0.000000e+00  6.528602e-06  5.194989e-10  6.872264e-07  2.828388e-07 -2.956317e-18  8.170653e-01  4.000000e+01 
 0.000000e+00  1.800000e+00  0.000000e+00  0.000000e+00  1.800000e+00  0.000000e+00  1.800000e+00  0.000000e+00  0.000000e+00  0.000000e+00  0.000000e+00  8.283454e-01  0.000000e+00  6.528405e-06  5.195014e-10  6.872264e-07  2.828388e-07  6.508257e-19  8.283454e-01  4.100000e+01 
 0.000000e+00  0.000000e+00  1.800000e+00  0.000000e+00  1.800000e+00  0.000000e+00  1.800000e+00  0.000000e+00  0.000000e+00  0.000000e+00  0.000000e+00  8.390879e-01  0.000000e+00  6.528048e-06  5.195014e-10  6.872264e-07  2.828388e-07 -9.625206e-19  8.390879e-01  4.200000e+01 
 0.000000e+00  1.800000e+00  1.800000e+00  0.000000e+00  1.800000e+00  0.000000e+00  1.800000e+00  0.000000e+00  0.000000e+00  0.000000e+00  0.000000e+00  8.492939e-01  0.000000e+00  6.527599e-06  5.195003e-10  6.872264e-07  2.828388e-07 -2.443425e-19  8.492939e-01  4.300000e+01 
 0.000000e+00  0.000000e+00  0.000000e+00  1.800000e+00  1.800000e+00  0.000000e+00  1.800000e+00  0.000000e+00  0.000000e+00  0.000000e+00  0.000000e+00  8.600363e-01  0.000000e+00  6.527025e-06  5.195014e-10  6.872264e-07  2.828388e-07 -3.700184e-18  8.600363e-01  4.400000e+01 
 0.000000e+00  1.800000e+00  0.000000e+00  1.800000e+00  1.800000e+00  0.000000e+00  1.800000e+00  0.000000e+00  0.000000e+00  0.000000e+00  0.000000e+00  8.702423e-01  0.000000e+00  6.526414e-06  5.195015e-10  6.872264e-07  2.828388e-07 -1.156835e-18  8.702423e-01  4.500000e+01 
 0.000000e+00  0.000000e+00  1.800000e+00  1.800000e+00  1.800000e+00  0.000000e+00  1.800000e+00  0.000000e+00  0.000000e+00  0.000000e+00  0.000000e+00  8.804482e-01  0.000000e+00  6.525752e-06  5.195003e-10  6.872264e-07  2.828388e-07  1.856524e-18  8.804482e-01  4.600000e+01 
 0.000000e+00  1.800000e+00  1.800000e+00  1.800000e+00  1.800000e+00  0.000000e+00  1.800000e+00  0.000000e+00  0.000000e+00  0.000000e+00  0.000000e+00  8.906541e-01  0.000000e+00  6.525044e-06  5.195009e-10  6.872264e-07  2.828388e-07  1.724559e-18  8.906541e-01  4.700000e+01 
 0.000000e+00  0.000000e+00  0.000000e+00  0.000000e+00  0.000000e+00  1.800000e+00  1.800000e+00  0.000000e+00  0.000000e+00  0.000000e+00  0.000000e+00  9.003182e-01  0.000000e+00  6.524327e-06  5.213646e-10  6.872264e-07  2.828388e-07 -2.295565e-18  9.003182e-01  4.800000e+01 
 0.000000e+00  1.800000e+00  0.000000e+00  0.000000e+00  0.000000e+00  1.800000e+00  1.800000e+00  0.000000e+00  0.000000e+00  0.000000e+00  0.000000e+00  9.105241e-01  0.000000e+00  6.523561e-06  5.213652e-10  6.872264e-07  2.828388e-07 -2.907136e-18  9.105241e-01  4.900000e+01 
 0.000000e+00  0.000000e+00  1.800000e+00  0.000000e+00  0.000000e+00  1.800000e+00  1.800000e+00  0.000000e+00  0.000000e+00  0.000000e+00  0.000000e+00  9.201923e-01  0.000000e+00  6.522819e-06  5.213652e-10  6.872264e-07  2.828388e-07  1.625377e-19  9.201923e-01  5.000000e+01 
 0.000000e+00  1.800000e+00  1.800000e+00  0.000000e+00  0.000000e+00  1.800000e+00  1.800000e+00  0.000000e+00  0.000000e+00  0.000000e+00  0.000000e+00  9.293229e-01  0.000000e+00  6.522104e-06  5.213659e-10  6.872264e-07  2.828388e-07  1.693603e-18  9.293229e-01  5.100000e+01 
 0.000000e+00  0.000000e+00  0.000000e+00  1.800000e+00  0.000000e+00  1.800000e+00  1.800000e+00  0.000000e+00  0.000000e+00  0.000000e+00  0.000000e+00  9.389911e-01  0.000000e+00  6.521330e-06  5.213652e-10  6.872264e-07  2.828388e-07 -4.297369e-20  9.389911e-01  5.200000e+01 
 0.000000e+00  1.800000e+00  0.000000e+00  1.800000e+00  0.000000e+00  1.800000e+00  1.800000e+00  0.000000e+00  0.000000e+00  0.000000e+00  0.000000e+00  9.481217e-01  0.000000e+00  6.520594e-06  5.213670e-10  6.872264e-07  2.828388e-07  1.981607e-18  9.481217e-01  5.300000e+01 
 0.000000e+00  0.000000e+00  1.800000e+00  1.800000e+00  0.000000e+00  1.800000e+00  1.800000e+00  0.000000e+00  0.000000e+00  0.000000e+00  0.000000e+00  9.572523e-01  0.000000e+00  6.519854e-06  5.213659e-10  6.872264e-07  2.828388e-07  1.397075e-18  9.572523e-01  5.400000e+01 
 0.000000e+00  1.800000e+00  1.800000e+00  1.800000e+00  0.000000e+00  1.800000e+00  1.800000e+00  0.000000e+00  0.000000e+00  0.000000e+00  0.000000e+00  9.663830e-01  0.000000e+00  6.519106e-06  5.213666e-10  6.872264e-07  2.828388e-07  2.727578e-18  9.663830e-01  5.500000e+01 
 0.000000e+00  0.000000e+00  0.000000e+00  0.000000e+00  1.800000e+00  1.800000e+00  1.800000e+00  0.000000e+00  0.000000e+00  0.000000e+00  0.000000e+00  9.755132e-01  0.000000e+00  6.518352e-06  5.213652e-10  6.872264e-07  2.828388e-07 -2.734593e-19  9.755132e-01  5.600000e+01 
 0.000000e+00  1.800000e+00  0.000000e+00  0.000000e+00  1.800000e+00  1.800000e+00  1.800000e+00  0.000000e+00  0.000000e+00  0.000000e+00  0.000000e+00  9.846439e-01  0.000000e+00  6.517597e-06  5.213659e-10  6.872264e-07  2.828388e-07 -1.619249e-18  9.846439e-01  5.700000e+01 
 0.000000e+00  0.000000e+00  1.800000e+00  0.000000e+00  1.800000e+00  1.800000e+00  1.800000e+00  0.000000e+00  0.000000e+00  0.000000e+00  0.000000e+00  9.932389e-01  0.000000e+00  6.516887e-06  5.213659e-10  6.872264e-07  2.828388e-07  5.606829e-19  9.932389e-01  5.800000e+01 
 0.000000e+00  1.800000e+00  1.800000e+00  0.000000e+00  1.800000e+00  1.800000e+00  1.800000e+00  0.000000e+00  0.000000e+00  0.000000e+00  0.000000e+00  1.001834e+00  0.000000e+00  6.516177e-06  5.213666e-10  6.872264e-07  2.828388e-07 -3.607831e-20  1.001834e+00  5.900000e+01 
 0.000000e+00  0.000000e+00  0.000000e+00  1.800000e+00  1.800000e+00  1.800000e+00  1.800000e+00  0.000000e+00  0.000000e+00  0.000000e+00  0.000000e+00  1.010429e+00  0.000000e+00  6.515462e-06  5.213659e-10  6.872264e-07  2.828388e-07  3.368703e-18  1.010429e+00  6.000000e+01 
 0.000000e+00  1.800000e+00  0.000000e+00  1.800000e+00  1.800000e+00  1.800000e+00  1.800000e+00  0.000000e+00  0.000000e+00  0.000000e+00  0.000000e+00  1.019024e+00  0.000000e+00  6.514750e-06  5.213666e-10  6.872264e-07  2.828388e-07  2.476010e-18  1.019024e+00  6.100000e+01 
 0.000000e+00  0.000000e+00  1.800000e+00  1.800000e+00  1.800000e+00  1.800000e+00  1.800000e+00  0.000000e+00  0.000000e+00  0.000000e+00  0.000000e+00  1.027619e+00  0.000000e+00  6.514040e-06  5.213666e-10  6.872264e-07  2.828388e-07 -1.584785e-18  1.027619e+00  6.200000e+01 
 0.000000e+00  1.800000e+00  1.800000e+00  1.800000e+00  1.800000e+00  1.800000e+00  1.800000e+00  0.000000e+00  0.000000e+00  0.000000e+00  0.000000e+00  1.036215e+00  0.000000e+00  6.513332e-06  5.213682e-10  6.872264e-07  2.828388e-07  5.074786e-19  1.036215e+00  6.300000e+01 
 0.000000e+00  0.000000e+00  0.000000e+00  0.000000e+00  0.000000e+00  0.000000e+00  0.000000e+00  1.800000e+00  0.000000e+00  0.000000e+00  0.000000e+00  1.044263e+00  0.000000e+00  6.512789e-06  5.347293e-10  6.872264e-07  2.828388e-07  1.405492e-18  1.044263e+00  6.400000e+01 
 0.000000e+00  1.800000e+00  0.000000e+00  0.000000e+00  0.000000e+00  0.000000e+00  0.000000e+00  1.800000e+00  0.000000e+00  0.000000e+00  0.000000e+00  1.049574e+00  0.000000e+00  6.513342e-06  5.347313e-10  6.872264e-07  2.828388e-07  3.013823e-18  1.049574e+00  6.500000e+01 
 0.000000e+00  0.000000e+00  1.800000e+00  0.000000e+00  0.000000e+00  0.000000e+00  0.000000e+00  1.800000e+00  0.000000e+00  0.000000e+00  0.000000e+00  1.055425e+00  0.000000e+00  6.513738e-06  5.347315e-10  6.872264e-07  2.828388e-07  1.418701e-18  1.055425e+00  6.600000e+01 
 0.000000e+00  1.800000e+00  1.800000e+00  0.000000e+00  0.000000e+00  0.000000e+00  0.000000e+00  1.800000e+00  0.000000e+00  0.000000e+00  0.000000e+00  1.062005e+00  0.000000e+00  6.513423e-06  5.347304e-10  6.872264e-07  2.828388e-07  1.107363e-18  1.062005e+00  6.700000e+01 
 0.000000e+00  0.000000e+00  0.000000e+00  1.800000e+00  0.000000e+00  0.000000e+00  0.000000e+00  1.800000e+00  0.000000e+00  0.000000e+00  0.000000e+00  1.069082e+00  0.000000e+00  6.513758e-06  5.347317e-10  6.872264e-07  2.828388e-07 -4.086934e-18  1.069082e+00  6.800000e+01 
 0.000000e+00  1.800000e+00  0.000000e+00  1.800000e+00  0.000000e+00  0.000000e+00  0.000000e+00  1.800000e+00  0.000000e+00  0.000000e+00  0.000000e+00  1.077286e+00  0.000000e+00  6.512257e-06  5.347304e-10  6.872264e-07  2.828388e-07 -2.641155e-19  1.077286e+00  6.900000e+01 
