 v-sweep       d0            d1            d2            d3            d4            d5            d6            d7            d8            d9            load          v-sweep       vmeas#branch  vmeas1#branch vmeas2#branch vmeas3#branch vmeas5#branch vout          ndata        
 0.000000e+00  0.000000e+00  0.000000e+00  0.000000e+00  0.000000e+00  0.000000e+00  0.000000e+00  0.000000e+00  0.000000e+00  0.000000e+00  0.000000e+00  5.633187e-04  0.000000e+00  6.510664e-06  2.135560e-10  7.672144e-07  3.130771e-07 -5.421011e-20  5.633187e-04  0.000000e+00 
 0.000000e+00  1.800000e+00  0.000000e+00  0.000000e+00  0.000000e+00  0.000000e+00  0.000000e+00  0.000000e+00  0.000000e+00  0.000000e+00  0.000000e+00  5.261092e-02  0.000000e+00  6.571736e-06  2.135551e-10  7.672144e-07  3.130772e-07 -8.312834e-20  5.261092e-02  1.000000e+00 
 0.000000e+00  0.000000e+00  1.800000e+00  0.000000e+00  0.000000e+00  0.000000e+00  0.000000e+00  0.000000e+00  0.000000e+00  0.000000e+00  0.000000e+00  9.881151e-02  0.000000e+00  6.587861e-06  2.135556e-10  7.672144e-07  3.130772e-07  7.341393e-20  9.881151e-02  2.000000e+00 
 0.000000e+00  1.800000e+00  1.800000e+00  0.000000e+00  0.000000e+00  0.000000e+00  0.000000e+00  0.000000e+00  0.000000e+00  0.000000e+00  0.000000e+00  1.396362e-01  0.000000e+00  6.592647e-06  2.135569e-10  7.672144e-07  3.130772e-07  2.989100e-20  1.396362e-01  3.000000e+00 
 0.000000e+00  0.000000e+00  0.000000e+00  1.800000e+00  0.000000e+00  0.000000e+00  0.000000e+00  0.000000e+00  0.000000e+00  0.000000e+00  0.000000e+00  1.767006e-01  0.000000e+00  6.594802e-06  2.135560e-10  7.672144e-07  3.130772e-07 -2.914984e-20  1.767006e-01  4.000000e+00 
 0.000000e+00  1.800000e+00  0.000000e+00  1.800000e+00  0.000000e+00  0.000000e+00  0.000000e+00  0.000000e+00  0.000000e+00  0.000000e+00  0.000000e+00  2.110786e-01  0.000000e+00  6.596073e-06  2.135560e-10  7.672144e-07  3.130772e-07 -2.220219e-19  2.110786e-01  5.000000e+00 
 0.000000e+00  0.000000e+00  1.800000e+00  1.800000e+00  0.000000e+00  0.000000e+00  0.000000e+00  0.000000e+00  0.000000e+00  0.000000e+00  0.000000e+00  2.427705e-01  0.000000e+00  6.596962e-06  2.135560e-10  7.672144e-07  3.130771e-07  1.241433e-19  2.427705e-01  6.000000e+00 
 0.000000e+00  1.800000e+00  1.800000e+00  1.800000e+00  0.000000e+00  0.000000e+00  0.000000e+00  0.000000e+00  0.000000e+00  0.000000e+00  0.000000e+00  2.723139e-01  0.000000e+00  6.597684e-06  2.135583e-10  7.672144e-07  3.130772e-07 -9.486769e-20  2.723139e-01  7.000000e+00 
 0.000000e+00  0.000000e+00  0.000000e+00  0.000000e+00  1.800000e+00  0.000000e+00  0.000000e+00  0.000000e+00  0.000000e+00  0.000000e+00  0.000000e+00  3.002461e-01  0.000000e+00  6.598372e-06  2.135523e-10  7.672144e-07  3.130772e-07  4.638895e-19  3.002461e-01  8.000000e+00 
 0.000000e+00  1.800000e+00  0.000000e+00  0.000000e+00  1.800000e+00  0.000000e+00  0.000000e+00  0.000000e+00  0.000000e+00  0.000000e+00  0.000000e+00  3.265667e-01  0.000000e+00  6.599102e-06  2.135564e-10  7.672144e-07  3.130772e-07 -4.914313e-19  3.265667e-01  9.000000e+00 
 0.000000e+00  0.000000e+00  1.800000e+00  0.000000e+00  1.800000e+00  0.000000e+00  0.000000e+00  0.000000e+00  0.000000e+00  0.000000e+00  0.000000e+00  3.512766e-01  0.000000e+00  6.599955e-06  2.135566e-10  7.672144e-07  3.130772e-07  6.488736e-19  3.512766e-01  1.000000e+01 
 0.000000e+00  1.800000e+00  1.800000e+00  0.000000e+00  1.800000e+00  0.000000e+00  0.000000e+00  0.000000e+00  0.000000e+00  0.000000e+00  0.000000e+00  3.749111e-01  0.000000e+00  6.601016e-06  2.135569e-10  7.672144e-07  3.130772e-07  1.285042e-19  3.749111e-01  1.100000e+01 
 0.000000e+00  0.000000e+00  0.000000e+00  1.800000e+00  1.800000e+00  0.000000e+00  0.000000e+00  0.000000e+00  0.000000e+00  0.000000e+00  0.000000e+00  3.974712e-01  0.000000e+00  6.602379e-06  2.135566e-10  7.672144e-07  3.130772e-07  1.328584e-19  3.974712e-01  1.200000e+01 
 0.000000e+00  1.800000e+00  0.000000e+00  1.800000e+00  1.800000e+00  0.000000e+00  0.000000e+00  0.000000e+00  0.000000e+00  0.000000e+00  0.000000e+00  4.189573e-01  0.000000e+00  6.604135e-06  2.135568e-10  7.672144e-07  3.130772e-07  1.744292e-19  4.189573e-01  1.300000e+01 
 0.000000e+00  0.000000e+00  1.800000e+00  1.800000e+00  1.800000e+00  0.000000e+00  0.000000e+00  0.000000e+00  0.000000e+00  0.000000e+00  0.000000e+00  4.399067e-01  0.000000e+00  6.606477e-06  2.135572e-10  7.672144e-07  3.130772e-07  4.017848e-19  4.399067e-01  1.400000e+01 
 0.000000e+00  1.800000e+00  1.800000e+00  1.800000e+00  1.800000e+00  0.000000e+00  0.000000e+00  0.000000e+00  0.000000e+00  0.000000e+00  0.000000e+00  4.597818e-01  0.000000e+00  6.609485e-06  2.135582e-10  7.672144e-07  3.130772e-07  8.062563e-19  4.597818e-01  1.500000e+01 
 0.000000e+00  0.000000e+00  0.000000e+00  0.000000e+00  0.000000e+00  1.800000e+00  0.000000e+00  0.000000e+00  0.000000e+00  0.000000e+00  0.000000e+00  4.791168e-01  0.000000e+00  6.613377e-06  2.188624e-10  7.672144e-07  3.130771e-07 -6.793204e-19  4.791168e-01  1.600000e+01 
 0.000000e+00  1.800000e+00  0.000000e+00  0.000000e+00  0.000000e+00  1.800000e+00  0.000000e+00  0.000000e+00  0.000000e+00  0.000000e+00  0.000000e+00  4.973799e-01  0.000000e+00  6.618281e-06  2.188591e-10  7.672144e-07  3.130772e-07  2.427279e-19  4.973799e-01  1.700000e+01 
 0.000000e+00  0.000000e+00  1.800000e+00  0.000000e+00  0.000000e+00  1.800000e+00  0.000000e+00  0.000000e+00  0.000000e+00  0.000000e+00  0.000000e+00  5.156429e-01  0.000000e+00  6.624677e-06  2.188597e-10  7.672144e-07  3.130772e-07 -3.013386e-19  5.156429e-01  1.800000e+01 
 0.000000e+00  1.800000e+00  1.800000e+00  0.000000e+00  0.000000e+00  1.800000e+00  0.000000e+00  0.000000e+00  0.000000e+00  0.000000e+00  0.000000e+00  5.328317e-01  0.000000e+00  6.632430e-06  2.188613e-10  7.672144e-07  3.130772e-07  5.070286e-19  5.328317e-01  1.900000e+01 
 0.000000e+00  0.000000e+00  0.000000e+00  1.800000e+00  0.000000e+00  1.800000e+00  0.000000e+00  0.000000e+00  0.000000e+00  0.000000e+00  0.000000e+00  5.500203e-01  0.000000e+00  6.642236e-06  2.188550e-10  7.672144e-07  3.130772e-07  7.033153e-19  5.500203e-01  2.000000e+01 
 0.000000e+00  1.800000e+00  0.000000e+00  1.800000e+00  0.000000e+00  1.800000e+00  0.000000e+00  0.000000e+00  0.000000e+00  0.000000e+00  0.000000e+00  5.661349e-01  0.000000e+00  6.653671e-06  2.188599e-10  7.672144e-07  3.130772e-07 -1.026948e-18  5.661349e-01  2.100000e+01 
 0.000000e+00  0.000000e+00  1.800000e+00  1.800000e+00  0.000000e+00  1.800000e+00  0.000000e+00  0.000000e+00  0.000000e+00  0.000000e+00  0.000000e+00  5.822495e-01  0.000000e+00  6.667626e-06  2.188622e-10  7.672144e-07  3.130771e-07 -1.639452e-18  5.822495e-01  2.200000e+01 
 0.000000e+00  1.800000e+00  1.800000e+00  1.800000e+00  0.000000e+00  1.800000e+00  0.000000e+00  0.000000e+00  0.000000e+00  0.000000e+00  0.000000e+00  5.978265e-01  0.000000e+00  6.683823e-06  2.188632e-10  7.672144e-07  3.130772e-07  1.558541e-19  5.978265e-01  2.300000e+01 
 0.000000e+00  0.000000e+00  0.000000e+00  0.000000e+00  1.800000e+00  1.800000e+00  0.000000e+00  0.000000e+00  0.000000e+00  0.000000e+00  0.000000e+00  6.134032e-01  0.000000e+00  6.702943e-06  2.188636e-10  7.672144e-07  3.130771e-07  7.354694e-19  6.134032e-01  2.400000e+01 
 0.000000e+00  1.800000e+00  0.000000e+00  0.000000e+00  1.800000e+00  1.800000e+00  0.000000e+00  0.000000e+00  0.000000e+00  0.000000e+00  0.000000e+00  6.279064e-01  0.000000e+00  6.723530e-06  2.188623e-10  7.672144e-07  3.130772e-07  8.864464e-19  6.279064e-01  2.500000e+01 
 0.000000e+00  0.000000e+00  1.800000e+00  0.000000e+00  1.800000e+00  1.800000e+00  0.000000e+00  0.000000e+00  0.000000e+00  0.000000e+00  0.000000e+00  6.424097e-01  0.000000e+00  6.746858e-06  2.188614e-10  7.672144e-07  3.130772e-07  8.043637e-19  6.424097e-01  2.600000e+01 
 0.000000e+00  1.800000e+00  1.800000e+00  0.000000e+00  1.800000e+00  1.800000e+00  0.000000e+00  0.000000e+00  0.000000e+00  0.000000e+00  0.000000e+00  1.744399e-08  0.000000e+00 -2.560739e-03  2.188622e-10  7.672144e-07  3.130772e-07 -5.169879e-26  1.744399e-08  2.700000e+01 
 0.000000e+00  0.000000e+00  0.000000e+00  1.800000e+00  1.800000e+00  1.800000e+00  0.000000e+00  0.000000e+00  0.000000e+00  0.000000e+00  0.000000e+00  6.703417e-01  0.000000e+00  6.799223e-06  2.188618e-10  7.672144e-07  3.130772e-07 -1.717889e-19  6.703417e-01  2.800000e+01 
 0.000000e+00  1.800000e+00  0.000000e+00  1.800000e+00  1.800000e+00  1.800000e+00  0.000000e+00  0.000000e+00  0.000000e+00  0.000000e+00  0.000000e+00  6.837715e-01  0.000000e+00  6.827483e-06  2.188609e-10  7.672144e-07  3.130772e-07 -1.030521e-18  6.837715e-01  2.900000e+01 
 0.000000e+00  0.000000e+00  1.800000e+00  1.800000e+00  1.800000e+00  1.800000e+00  0.000000e+00  0.000000e+00  0.000000e+00  0.000000e+00  0.000000e+00  6.972015e-01  0.000000e+00  6.857300e-06  2.188613e-10  7.672144e-07  3.130772e-07  9.613824e-20  6.972015e-01  3.000000e+01 
 0.000000e+00  1.800000e+00  1.800000e+00  1.800000e+00  1.800000e+00  1.800000e+00  0.000000e+00  0.000000e+00  0.000000e+00  0.000000e+00  0.000000e+00  1.744399e-08  0.000000e+00 -2.558185e-03  2.188626e-10  7.672144e-07  3.130772e-07 -3.554292e-26  1.744399e-08  3.100000e+01 
 0.000000e+00  0.000000e+00  0.000000e+00  0.000000e+00  0.000000e+00  0.000000e+00  1.800000e+00  0.000000e+00  0.000000e+00  0.000000e+00  0.000000e+00  7.229860e-01  0.000000e+00  6.917078e-06  2.135580e-10  7.672144e-07  3.130772e-07 -3.800875e-18  7.229860e-01  3.200000e+01 
 0.000000e+00  1.800000e+00  0.000000e+00  0.000000e+00  0.000000e+00  0.000000e+00  1.800000e+00  0.000000e+00  0.000000e+00  0.000000e+00  0.000000e+00  7.353420e-01  0.000000e+00  6.945913e-06  2.135607e-10  7.672144e-07  3.130771e-07  1.615596e-18  7.353420e-01  3.300000e+01 
 0.000000e+00  0.000000e+00  1.800000e+00  0.000000e+00  0.000000e+00  0.000000e+00  1.800000e+00  0.000000e+00  0.000000e+00  0.000000e+00  0.000000e+00  7.476980e-01  0.000000e+00  6.974139e-06  2.135591e-10  7.672144e-07  3.130772e-07  3.483893e-18  7.476980e-01  3.400000e+01 
 0.000000e+00  1.800000e+00  1.800000e+00  0.000000e+00  0.000000e+00  0.000000e+00  1.800000e+00  0.000000e+00  0.000000e+00  0.000000e+00  0.000000e+00  7.600540e-01  0.000000e+00  7.001225e-06  2.135606e-10  7.672144e-07  3.130772e-07  8.291791e-19  7.600540e-01  3.500000e+01 
 0.000000e+00  0.000000e+00  0.000000e+00  1.800000e+00  0.000000e+00  0.000000e+00  1.800000e+00  0.000000e+00  0.000000e+00  0.000000e+00  0.000000e+00  7.718732e-01  0.000000e+00  7.025602e-06  2.135591e-10  7.672144e-07  3.130772e-07  3.018150e-18  7.718732e-01  3.600000e+01 
 0.000000e+00  1.800000e+00  0.000000e+00  1.800000e+00  0.000000e+00  0.000000e+00  1.800000e+00  0.000000e+00  0.000000e+00  0.000000e+00  0.000000e+00  1.275902e+00  0.000000e+00 -1.727344e-03  2.135557e-10  7.672144e-07  3.130772e-07 -4.467252e-18  1.275902e+00  3.700000e+01 
 0.000000e+00  0.000000e+00  1.800000e+00  1.800000e+00  0.000000e+00  0.000000e+00  1.800000e+00  0.000000e+00  0.000000e+00  0.000000e+00  0.000000e+00  7.949739e-01  0.000000e+00  7.067594e-06  2.135601e-10  7.672144e-07  3.130772e-07 -2.484235e-18  7.949739e-01  3.800000e+01 
 0.000000e+00  1.800000e+00  1.800000e+00  1.800000e+00  0.000000e+00  0.000000e+00  1.800000e+00  0.000000e+00  0.000000e+00  0.000000e+00  0.000000e+00  8.062552e-01  0.000000e+00  7.084995e-06  2.135593e-10  7.672144e-07  3.130772e-07  7.508418e-19  8.062552e-01  3.900000e+01 
 0.000000e+00  0.000000e+00  0.000000e+00  0.000000e+00  1.800000e+00  0.000000e+00  1.800000e+00  0.000000e+00  0.000000e+00  0.000000e+00  0.000000e+00  1.744399e-08  0.000000e+00 -2.971581e-03  2.135603e-10  7.672144e-07  3.130771e-07  4.200527e-26  1.744399e-08  4.000000e+01 
 0.000000e+00  1.800000e+00  0.000000e+00  0.000000e+00  1.800000e+00  0.000000e+00  1.800000e+00  0.000000e+00  0.000000e+00  0.000000e+00  0.000000e+00  8.282794e-01  0.000000e+00  7.112841e-06  2.135605e-10  7.672144e-07  3.130772e-07  1.035101e-17  8.282794e-01  4.100000e+01 
 0.000000e+00  0.000000e+00  1.800000e+00  0.000000e+00  1.800000e+00  0.000000e+00  1.800000e+00  0.000000e+00  0.000000e+00  0.000000e+00  0.000000e+00  8.390227e-01  0.000000e+00  7.123631e-06  2.135605e-10  7.672144e-07  3.130772e-07 -2.084178e-18  8.390227e-01  4.200000e+01 
 0.000000e+00  1.800000e+00  1.800000e+00  0.000000e+00  1.800000e+00  0.000000e+00  1.800000e+00  0.000000e+00  0.000000e+00  0.000000e+00  0.000000e+00  8.492293e-01  0.000000e+00  7.132345e-06  2.135608e-10  7.672144e-07  3.130772e-07  1.552287e-18  8.492293e-01  4.300000e+01 
 0.000000e+00  0.000000e+00  0.000000e+00  1.800000e+00  1.800000e+00  0.000000e+00  1.800000e+00  0.000000e+00  0.000000e+00  0.000000e+00  0.000000e+00  8.599724e-01  0.000000e+00  7.140046e-06  2.135606e-10  7.672144e-07  3.130772e-07  8.639736e-19  8.599724e-01  4.400000e+01 
 0.000000e+00  1.800000e+00  0.000000e+00  1.800000e+00  1.800000e+00  0.000000e+00  1.800000e+00  0.000000e+00  0.000000e+00  0.000000e+00  0.000000e+00  8.701788e-01  0.000000e+00  7.146126e-06  2.135596e-10  7.672144e-07  3.130772e-07  4.696586e-18  8.701788e-01  4.500000e+01 
 0.000000e+00  0.000000e+00  1.800000e+00  1.800000e+00  1.800000e+00  0.000000e+00  1.800000e+00  0.000000e+00  0.000000e+00  0.000000e+00  0.000000e+00  1.744399e-08  0.000000e+00 -8.635344e-02  2.135617e-10  7.672144e-07  3.130772e-07  5.492996e-26  1.744399e-08  4.600000e+01 
 0.000000e+00  1.800000e+00  1.800000e+00  1.800000e+00  1.800000e+00  0.000000e+00  1.800000e+00  0.000000e+00  0.000000e+00  0.000000e+00  0.000000e+00  8.905916e-01  0.000000e+00  7.155217e-06  2.135612e-10  7.672144e-07  3.130771e-07 -7.918090e-18  8.905916e-01  4.700000e+01 
 0.000000e+00  0.000000e+00  0.000000e+00  0.000000e+00  0.000000e+00  1.800000e+00  1.800000e+00  0.000000e+00  0.000000e+00  0.000000e+00  0.000000e+00  9.002577e-01  0.000000e+00  7.158317e-06  2.188589e-10  7.672144e-07  3.130772e-07 -3.677261e-18  9.002577e-01  4.800000e+01 
 0.000000e+00  1.800000e+00  0.000000e+00  0.000000e+00  0.000000e+00  1.800000e+00  1.800000e+00  0.000000e+00  0.000000e+00  0.000000e+00  0.000000e+00  9.104639e-01  0.000000e+00  7.160924e-06  2.188596e-10  7.672144e-07  3.130772e-07  5.152012e-18  9.104639e-01  4.900000e+01 
 0.000000e+00  0.000000e+00  1.800000e+00  0.000000e+00  0.000000e+00  1.800000e+00  1.800000e+00  0.000000e+00  0.000000e+00  0.000000e+00  0.000000e+00  9.201324e-01  0.000000e+00  7.162840e-06  2.188587e-10  7.672144e-07  3.130772e-07 -6.111779e-18  9.201324e-01  5.000000e+01 
 0.000000e+00  1.800000e+00  1.800000e+00  0.000000e+00  0.000000e+00  1.800000e+00  1.800000e+00  0.000000e+00  0.000000e+00  0.000000e+00  0.000000e+00  1.744399e-08  0.000000e+00 -3.494498e-03  2.188592e-10  7.672144e-07  3.130772e-07 -4.523644e-26  1.744399e-08  5.100000e+01 
 0.000000e+00  0.000000e+00  0.000000e+00  1.800000e+00  0.000000e+00  1.800000e+00  1.800000e+00  0.000000e+00  0.000000e+00  0.000000e+00  0.000000e+00  9.389316e-01  0.000000e+00  7.165316e-06  2.188595e-10  7.672144e-07  3.130771e-07  8.046667e-18  9.389316e-01  5.200000e+01 
 0.000000e+00  1.800000e+00  0.000000e+00  1.800000e+00  0.000000e+00  1.800000e+00  1.800000e+00  0.000000e+00  0.000000e+00  0.000000e+00  0.000000e+00  9.480624e-01  0.000000e+00  7.166031e-06  2.188584e-10  7.672144e-07  3.130771e-07 -9.694881e-18  9.480624e-01  5.300000e+01 
 0.000000e+00  0.000000e+00  1.800000e+00  1.800000e+00  0.000000e+00  1.800000e+00  1.800000e+00  0.000000e+00  0.000000e+00  0.000000e+00  0.000000e+00  9.571932e-01  0.000000e+00  7.166494e-06  2.188584e-10  7.672144e-07  3.130771e-07 -7.869439e-18  9.571932e-01  5.400000e+01 
 0.000000e+00  1.800000e+00  1.800000e+00  1.800000e+00  0.000000e+00  1.800000e+00  1.800000e+00  0.000000e+00  0.000000e+00  0.000000e+00  0.000000e+00  9.663241e-01  0.000000e+00  7.166742e-06  2.188544e-10  7.672144e-07  3.130771e-07 -2.357650e-18  9.663241e-01  5.500000e+01 
 0.000000e+00  0.000000e+00  0.000000e+00  0.000000e+00  1.800000e+00  1.800000e+00  1.800000e+00  0.000000e+00  0.000000e+00  0.000000e+00  0.000000e+00  9.754545e-01  0.000000e+00  7.166812e-06  2.188575e-10  7.672144e-07  3.130772e-07 -8.387949e-18  9.754545e-01  5.600000e+01 
 0.000000e+00  1.800000e+00  0.000000e+00  0.000000e+00  1.800000e+00  1.800000e+00  1.800000e+00  0.000000e+00  0.000000e+00  0.000000e+00  0.000000e+00  9.845852e-01  0.000000e+00  7.166739e-06  2.188588e-10  7.672144e-07  3.130772e-07  1.160283e-18  9.845852e-01  5.700000e+01 
 0.000000e+00  0.000000e+00  1.800000e+00  0.000000e+00  1.800000e+00  1.800000e+00  1.800000e+00  0.000000e+00  0.000000e+00  0.000000e+00  0.000000e+00  9.931805e-01  0.000000e+00  7.166566e-06  2.188597e-10  7.672144e-07  3.130772e-07  6.809569e-18  9.931805e-01  5.800000e+01 
 0.000000e+00  1.800000e+00  1.800000e+00  0.000000e+00  1.800000e+00  1.800000e+00  1.800000e+00  0.000000e+00  0.000000e+00  0.000000e+00  0.000000e+00  1.001776e+00  0.000000e+00  7.166302e-06  2.188598e-10  7.672144e-07  3.130772e-07  9.825582e-19  1.001776e+00  5.900000e+01 
 0.000000e+00  0.000000e+00  0.000000e+00  1.800000e+00  1.800000e+00  1.800000e+00  1.800000e+00  0.000000e+00  0.000000e+00  0.000000e+00  0.000000e+00  1.010371e+00  0.000000e+00  7.165967e-06  2.188571e-10  7.672144e-07  3.130772e-07 -3.412219e-19  1.010371e+00  6.000000e+01 
 0.000000e+00  1.800000e+00  0.000000e+00  1.800000e+00  1.800000e+00  1.800000e+00  1.800000e+00  0.000000e+00  0.000000e+00  0.000000e+00  0.000000e+00  1.018966e+00  0.000000e+00  7.165567e-06  2.188610e-10  7.672144e-07  3.130772e-07  7.306486e-18  1.018966e+00  6.100000e+01 
 0.000000e+00  0.000000e+00  1.800000e+00  1.800000e+00  1.800000e+00  1.800000e+00  1.800000e+00  0.000000e+00  0.000000e+00  0.000000e+00  0.000000e+00  1.027561e+00  0.000000e+00  7.165126e-06  2.188585e-10  7.672144e-07  3.130772e-07  3.615911e-18  1.027561e+00  6.200000e+01 
 0.000000e+00  1.800000e+00  1.800000e+00  1.800000e+00  1.800000e+00  1.800000e+00  1.800000e+00  0.000000e+00  0.000000e+00  0.000000e+00  0.000000e+00  1.744399e-08  0.000000e+00 -3.492281e-03  2.188629e-10  7.672144e-07  3.130772e-07 -2.261822e-26  1.744399e-08  6.300000e+01 
 0.000000e+00  0.000000e+00  0.000000e+00  0.000000e+00  0.000000e+00  0.000000e+00  0.000000e+00  1.800000e+00  0.000000e+00  0.000000e+00  0.000000e+00  1.044236e+00  0.000000e+00  7.164282e-06  2.191359e-10  7.672144e-07  3.130772e-07  8.815998e-18  1.044236e+00  6.400000e+01 
 0.000000e+00  1.800000e+00  0.000000e+00  0.000000e+00  0.000000e+00  0.000000e+00  0.000000e+00  1.800000e+00  0.000000e+00  0.000000e+00  0.000000e+00  1.049550e+00  0.000000e+00  7.164848e-06  2.191381e-10  7.672144e-07  3.130772e-07 -1.701272e-18  1.049550e+00  6.500000e+01 
 0.000000e+00  0.000000e+00  1.800000e+00  0.000000e+00  0.000000e+00  0.000000e+00  0.000000e+00  1.800000e+00  0.000000e+00  0.000000e+00  0.000000e+00  1.055416e+00  0.000000e+00  7.165303e-06  2.191371e-10  7.672144e-07  3.130772e-07  6.509455e-18  1.055416e+00  6.600000e+01 
 0.000000e+00  1.800000e+00  1.800000e+00  0.000000e+00  0.000000e+00  0.000000e+00  0.000000e+00  1.800000e+00  0.000000e+00  0.000000e+00  0.000000e+00  1.061998e+00  0.000000e+00  7.165000e-06  2.191355e-10  7.672144e-07  3.130772e-07 -4.297898e-19  1.061998e+00  6.700000e+01 
 0.000000e+00  0.000000e+00  0.000000e+00  1.800000e+00  0.000000e+00  0.000000e+00  0.000000e+00  1.800000e+00  0.000000e+00  0.000000e+00  0.000000e+00  1.069109e+00  0.000000e+00  7.165565e-06  2.191364e-10  7.672144e-07  3.130772e-07 -7.928414e-18  1.069109e+00  6.800000e+01 
 0.000000e+00  1.800000e+00  0.000000e+00  1.800000e+00  0.000000e+00  0.000000e+00  0.000000e+00  1.800000e+00  0.000000e+00  0.000000e+00  0.000000e+00  1.077292e+00  0.000000e+00  7.164073e-06  2.191355e-10  7.672144e-07  3.130772e-07  5.306423e-18  1.077292e+00  6.900000e+01 
