 v-sweep       d0            d1            d2            d3            d4            d5            d6            d7            d8            d9            load          v-sweep       vmeas#branch  vmeas1#branch vmeas2#branch vmeas3#branch vmeas5#branch vout          ndata        
 0.000000e+00  0.000000e+00  0.000000e+00  0.000000e+00  0.000000e+00  0.000000e+00  0.000000e+00  0.000000e+00  0.000000e+00  0.000000e+00  0.000000e+00  7.007767e-04  0.000000e+00  8.448783e-06  2.322094e-10  9.999978e-07  3.999992e-07 -5.135137e-21  7.007767e-04  0.000000e+00 
 0.000000e+00  1.800000e+00  0.000000e+00  0.000000e+00  0.000000e+00  0.000000e+00  0.000000e+00  0.000000e+00  0.000000e+00  0.000000e+00  0.000000e+00  5.259478e-02  0.000000e+00  8.521483e-06  2.322129e-10  9.999978e-07  3.999992e-07 -1.815827e-20  5.259478e-02  1.000000e+00 
 0.000000e+00  0.000000e+00  1.800000e+00  0.000000e+00  0.000000e+00  0.000000e+00  0.000000e+00  0.000000e+00  0.000000e+00  0.000000e+00  0.000000e+00  9.879785e-02  0.000000e+00  8.541566e-06  2.322127e-10  9.999978e-07  3.999992e-07  9.105604e-21  9.879785e-02  2.000000e+00 
 0.000000e+00  1.800000e+00  1.800000e+00  0.000000e+00  0.000000e+00  0.000000e+00  0.000000e+00  0.000000e+00  0.000000e+00  0.000000e+00  0.000000e+00  1.396234e-01  0.000000e+00  8.547507e-06  2.322134e-10  9.999978e-07  3.999992e-07  8.519299e-20  1.396234e-01  3.000000e+00 
 0.000000e+00  0.000000e+00  0.000000e+00  1.800000e+00  0.000000e+00  0.000000e+00  0.000000e+00  0.000000e+00  0.000000e+00  0.000000e+00  0.000000e+00  1.766884e-01  0.000000e+00  8.550160e-06  2.322140e-10  9.999978e-07  3.999993e-07 -1.098430e-19  1.766884e-01  4.000000e+00 
 0.000000e+00  1.800000e+00  0.000000e+00  1.800000e+00  0.000000e+00  0.000000e+00  0.000000e+00  0.000000e+00  0.000000e+00  0.000000e+00  0.000000e+00  2.110668e-01  0.000000e+00  8.551754e-06  2.322105e-10  9.999978e-07  3.999992e-07  6.696192e-20  2.110668e-01  5.000000e+00 
 0.000000e+00  0.000000e+00  1.800000e+00  1.800000e+00  0.000000e+00  0.000000e+00  0.000000e+00  0.000000e+00  0.000000e+00  0.000000e+00  0.000000e+00  2.427589e-01  0.000000e+00  8.552930e-06  2.322133e-10  9.999978e-07  3.999992e-07  8.724439e-20  2.427589e-01  6.000000e+00 
 0.000000e+00  1.800000e+00  1.800000e+00  1.800000e+00  0.000000e+00  0.000000e+00  0.000000e+00  0.000000e+00  0.000000e+00  0.000000e+00  0.000000e+00  2.723025e-01  0.000000e+00  8.554000e-06  2.322137e-10  9.999978e-07  3.999992e-07 -4.360896e-21  2.723025e-01  7.000000e+00 
 0.000000e+00  0.000000e+00  0.000000e+00  0.000000e+00  1.800000e+00  0.000000e+00  0.000000e+00  0.000000e+00  0.000000e+00  0.000000e+00  0.000000e+00  3.002349e-01  0.000000e+00  8.555144e-06  2.322130e-10  9.999978e-07  3.999992e-07 -3.598037e-19  3.002349e-01  8.000000e+00 
 0.000000e+00  1.800000e+00  0.000000e+00  0.000000e+00  1.800000e+00  0.000000e+00  0.000000e+00  0.000000e+00  0.000000e+00  0.000000e+00  0.000000e+00  3.265556e-01  0.000000e+00  8.556525e-06  2.322121e-10  9.999978e-07  3.999992e-07  3.658124e-20  3.265556e-01  9.000000e+00 
 0.000000e+00  0.000000e+00  1.800000e+00  0.000000e+00  1.800000e+00  0.000000e+00  0.000000e+00  0.000000e+00  0.000000e+00  0.000000e+00  0.000000e+00  3.512654e-01  0.000000e+00  8.558276e-06  2.322125e-10  9.999978e-07  3.999992e-07  7.482014e-19  3.512654e-01  1.000000e+01 
 0.000000e+00  1.800000e+00  1.800000e+00  0.000000e+00  1.800000e+00  0.000000e+00  0.000000e+00  0.000000e+00  0.000000e+00  0.000000e+00  0.000000e+00  3.749000e-01  0.000000e+00  8.560598e-06  2.322130e-10  9.999978e-07  3.999992e-07  1.734234e-19  3.749000e-01  1.100000e+01 
 0.000000e+00  0.000000e+00  0.000000e+00  1.800000e+00  1.800000e+00  0.000000e+00  0.000000e+00  0.000000e+00  0.000000e+00  0.000000e+00  0.000000e+00  3.974602e-01  0.000000e+00  8.563705e-06  2.322098e-10  9.999978e-07  3.999992e-07  4.247738e-20  3.974602e-01  1.200000e+01 
 0.000000e+00  1.800000e+00  0.000000e+00  1.800000e+00  1.800000e+00  0.000000e+00  0.000000e+00  0.000000e+00  0.000000e+00  0.000000e+00  0.000000e+00  4.189462e-01  0.000000e+00  8.567817e-06  2.322159e-10  9.999978e-07  3.999992e-07 -1.637354e-19  4.189462e-01  1.300000e+01 
 0.000000e+00  0.000000e+00  1.800000e+00  1.800000e+00  1.800000e+00  0.000000e+00  0.000000e+00  0.000000e+00  0.000000e+00  0.000000e+00  0.000000e+00  4.398955e-01  0.000000e+00  8.573338e-06  2.322148e-10  9.999978e-07  3.999992e-07 -2.102164e-19  4.398955e-01  1.400000e+01 
 0.000000e+00  1.800000e+00  1.800000e+00  1.800000e+00  1.800000e+00  0.000000e+00  0.000000e+00  0.000000e+00  0.000000e+00  0.000000e+00  0.000000e+00  4.597705e-01  0.000000e+00  8.580447e-06  2.322153e-10  9.999978e-07  3.999992e-07  1.763814e-19  4.597705e-01  1.500000e+01 
 0.000000e+00  0.000000e+00  0.000000e+00  0.000000e+00  0.000000e+00  1.800000e+00  0.000000e+00  0.000000e+00  0.000000e+00  0.000000e+00  0.000000e+00  4.791054e-01  0.000000e+00  8.589639e-06  2.378365e-10  9.999978e-07  3.999992e-07 -7.524895e-19  4.791054e-01  1.600000e+01 
 0.000000e+00  1.800000e+00  0.000000e+00  0.000000e+00  0.000000e+00  1.800000e+00  0.000000e+00  0.000000e+00  0.000000e+00  0.000000e+00  0.000000e+00  4.973683e-01  0.000000e+00  8.601020e-06  2.378356e-10  9.999978e-07  3.999992e-07 -3.653756e-19  4.973683e-01  1.700000e+01 
 0.000000e+00  0.000000e+00  1.800000e+00  0.000000e+00  0.000000e+00  1.800000e+00  0.000000e+00  0.000000e+00  0.000000e+00  0.000000e+00  0.000000e+00  5.156311e-01  0.000000e+00  8.615633e-06  2.378396e-10  9.999978e-07  3.999992e-07  2.580142e-19  5.156311e-01  1.800000e+01 
 0.000000e+00  1.800000e+00  1.800000e+00  0.000000e+00  0.000000e+00  1.800000e+00  0.000000e+00  0.000000e+00  0.000000e+00  0.000000e+00  0.000000e+00  5.328197e-01  0.000000e+00  8.632931e-06  2.378409e-10  9.999978e-07  3.999992e-07  8.854141e-20  5.328197e-01  1.900000e+01 
 0.000000e+00  0.000000e+00  0.000000e+00  1.800000e+00  0.000000e+00  1.800000e+00  0.000000e+00  0.000000e+00  0.000000e+00  0.000000e+00  0.000000e+00  5.500083e-01  0.000000e+00  8.654227e-06  2.378404e-10  9.999978e-07  3.999993e-07 -1.652991e-18  5.500083e-01  2.000000e+01 
 0.000000e+00  1.800000e+00  0.000000e+00  1.800000e+00  0.000000e+00  1.800000e+00  0.000000e+00  0.000000e+00  0.000000e+00  0.000000e+00  0.000000e+00  5.661229e-01  0.000000e+00  8.678283e-06  2.378380e-10  9.999978e-07  3.999992e-07  9.453682e-20  5.661229e-01  2.100000e+01 
 0.000000e+00  0.000000e+00  1.800000e+00  1.800000e+00  0.000000e+00  1.800000e+00  0.000000e+00  0.000000e+00  0.000000e+00  0.000000e+00  0.000000e+00  5.822377e-01  0.000000e+00  8.706607e-06  2.378378e-10  9.999978e-07  3.999992e-07 -6.769646e-19  5.822377e-01  2.200000e+01 
 0.000000e+00  1.800000e+00  1.800000e+00  1.800000e+00  0.000000e+00  1.800000e+00  0.000000e+00  0.000000e+00  0.000000e+00  0.000000e+00  0.000000e+00  5.978153e-01  0.000000e+00  8.738204e-06  2.378388e-10  9.999978e-07  3.999992e-07 -8.922301e-20  5.978153e-01  2.300000e+01 
 0.000000e+00  0.000000e+00  0.000000e+00  0.000000e+00  1.800000e+00  1.800000e+00  0.000000e+00  0.000000e+00  0.000000e+00  0.000000e+00  0.000000e+00  6.133927e-01  0.000000e+00  8.773899e-06  2.378385e-10  9.999978e-07  3.999992e-07  1.880076e-18  6.133927e-01  2.400000e+01 
 0.000000e+00  1.800000e+00  0.000000e+00  0.000000e+00  1.800000e+00  1.800000e+00  0.000000e+00  0.000000e+00  0.000000e+00  0.000000e+00  0.000000e+00  6.278966e-01  0.000000e+00  8.810613e-06  2.378375e-10  9.999978e-07  3.999992e-07  2.549913e-18  6.278966e-01  2.500000e+01 
 0.000000e+00  0.000000e+00  1.800000e+00  0.000000e+00  1.800000e+00  1.800000e+00  0.000000e+00  0.000000e+00  0.000000e+00  0.000000e+00  0.000000e+00  6.424008e-01  0.000000e+00  8.850286e-06  2.378375e-10  9.999978e-07  3.999992e-07  7.777549e-19  6.424008e-01  2.600000e+01 
 0.000000e+00  1.800000e+00  1.800000e+00  0.000000e+00  1.800000e+00  1.800000e+00  0.000000e+00  0.000000e+00  0.000000e+00  0.000000e+00  0.000000e+00  6.563677e-01  0.000000e+00  8.890727e-06  2.378407e-10  9.999978e-07  3.999992e-07 -1.045530e-18  6.563677e-01  2.700000e+01 
 0.000000e+00  0.000000e+00  0.000000e+00  1.800000e+00  1.800000e+00  1.800000e+00  0.000000e+00  0.000000e+00  0.000000e+00  0.000000e+00  0.000000e+00  6.703347e-01  0.000000e+00  8.932650e-06  2.378394e-10  9.999978e-07  3.999992e-07 -3.514710e-18  6.703347e-01  2.800000e+01 
 0.000000e+00  1.800000e+00  0.000000e+00  1.800000e+00  1.800000e+00  1.800000e+00  0.000000e+00  0.000000e+00  0.000000e+00  0.000000e+00  0.000000e+00  6.837654e-01  0.000000e+00  8.973567e-06  2.378397e-10  9.999978e-07  3.999992e-07  4.638432e-19  6.837654e-01  2.900000e+01 
 0.000000e+00  0.000000e+00  1.800000e+00  1.800000e+00  1.800000e+00  1.800000e+00  0.000000e+00  0.000000e+00  0.000000e+00  0.000000e+00  0.000000e+00  6.971961e-01  0.000000e+00  9.014174e-06  2.378397e-10  9.999978e-07  3.999992e-07 -1.351401e-18  6.971961e-01  3.000000e+01 
 0.000000e+00  1.800000e+00  1.800000e+00  1.800000e+00  1.800000e+00  1.800000e+00  0.000000e+00  0.000000e+00  0.000000e+00  0.000000e+00  0.000000e+00  7.100903e-01  0.000000e+00  9.052004e-06  2.378437e-10  9.999978e-07  3.999992e-07  4.310604e-19  7.100903e-01  3.100000e+01 
 0.000000e+00  0.000000e+00  0.000000e+00  0.000000e+00  0.000000e+00  0.000000e+00  1.800000e+00  0.000000e+00  0.000000e+00  0.000000e+00  0.000000e+00  7.229815e-01  0.000000e+00  9.087844e-06  2.322119e-10  9.999978e-07  3.999992e-07 -2.008064e-18  7.229815e-01  3.200000e+01 
 0.000000e+00  1.800000e+00  0.000000e+00  0.000000e+00  0.000000e+00  0.000000e+00  1.800000e+00  0.000000e+00  0.000000e+00  0.000000e+00  0.000000e+00  7.353376e-01  0.000000e+00  9.119723e-06  2.322138e-10  9.999978e-07  3.999992e-07 -1.733069e-18  7.353376e-01  3.300000e+01 
 0.000000e+00  0.000000e+00  1.800000e+00  0.000000e+00  0.000000e+00  0.000000e+00  1.800000e+00  0.000000e+00  0.000000e+00  0.000000e+00  0.000000e+00  7.476936e-01  0.000000e+00  9.148654e-06  2.322138e-10  9.999978e-07  3.999992e-07  2.025573e-18  7.476936e-01  3.400000e+01 
 0.000000e+00  1.800000e+00  1.800000e+00  0.000000e+00  0.000000e+00  0.000000e+00  1.800000e+00  0.000000e+00  0.000000e+00  0.000000e+00  0.000000e+00  7.600495e-01  0.000000e+00  9.174317e-06  2.322118e-10  9.999978e-07  3.999992e-07 -1.160276e-18  7.600495e-01  3.500000e+01 
 0.000000e+00  0.000000e+00  0.000000e+00  1.800000e+00  0.000000e+00  0.000000e+00  1.800000e+00  0.000000e+00  0.000000e+00  0.000000e+00  0.000000e+00  7.718685e-01  0.000000e+00  9.195685e-06  2.322137e-10  9.999978e-07  3.999992e-07 -8.205102e-19  7.718685e-01  3.600000e+01 
 0.000000e+00  1.800000e+00  0.000000e+00  1.800000e+00  0.000000e+00  0.000000e+00  1.800000e+00  0.000000e+00  0.000000e+00  0.000000e+00  0.000000e+00  7.831497e-01  0.000000e+00  9.213226e-06  2.322150e-10  9.999978e-07  3.999992e-07  2.916017e-18  7.831497e-01  3.700000e+01 
 0.000000e+00  0.000000e+00  1.800000e+00  1.800000e+00  0.000000e+00  0.000000e+00  1.800000e+00  0.000000e+00  0.000000e+00  0.000000e+00  0.000000e+00  7.949685e-01  0.000000e+00  9.228768e-06  2.322158e-10  9.999978e-07  3.999992e-07  2.517078e-18  7.949685e-01  3.800000e+01 
 0.000000e+00  1.800000e+00  1.800000e+00  1.800000e+00  0.000000e+00  0.000000e+00  1.800000e+00  0.000000e+00  0.000000e+00  0.000000e+00  0.000000e+00  8.062495e-01  0.000000e+00  9.241125e-06  2.322131e-10  9.999978e-07  3.999992e-07  6.196575e-19  8.062495e-01  3.900000e+01 
 0.000000e+00  0.000000e+00  0.000000e+00  0.000000e+00  1.800000e+00  0.000000e+00  1.800000e+00  0.000000e+00  0.000000e+00  0.000000e+00  0.000000e+00  8.169922e-01  0.000000e+00  9.250880e-06  2.322131e-10  9.999978e-07  3.999992e-07 -1.803942e-18  8.169922e-01  4.000000e+01 
 0.000000e+00  1.800000e+00  0.000000e+00  0.000000e+00  1.800000e+00  0.000000e+00  1.800000e+00  0.000000e+00  0.000000e+00  0.000000e+00  0.000000e+00  8.282730e-01  0.000000e+00  9.259269e-06  2.322149e-10  9.999978e-07  3.999992e-07  3.267165e-19  8.282730e-01  4.100000e+01 
 0.000000e+00  0.000000e+00  1.800000e+00  0.000000e+00  1.800000e+00  0.000000e+00  1.800000e+00  0.000000e+00  0.000000e+00  0.000000e+00  0.000000e+00  8.390160e-01  0.000000e+00  9.265714e-06  2.322158e-10  9.999978e-07  3.999992e-07  3.148660e-18  8.390160e-01  4.200000e+01 
 0.000000e+00  1.800000e+00  1.800000e+00  0.000000e+00  1.800000e+00  0.000000e+00  1.800000e+00  0.000000e+00  0.000000e+00  0.000000e+00  0.000000e+00  8.492224e-01  0.000000e+00  9.270644e-06  2.322153e-10  9.999978e-07  3.999993e-07  5.536300e-18  8.492224e-01  4.300000e+01 
 0.000000e+00  0.000000e+00  0.000000e+00  1.800000e+00  1.800000e+00  0.000000e+00  1.800000e+00  0.000000e+00  0.000000e+00  0.000000e+00  0.000000e+00  8.599652e-01  0.000000e+00  9.274754e-06  2.322126e-10  9.999978e-07  3.999992e-07  1.133423e-18  8.599652e-01  4.400000e+01 
 0.000000e+00  1.800000e+00  0.000000e+00  1.800000e+00  1.800000e+00  0.000000e+00  1.800000e+00  0.000000e+00  0.000000e+00  0.000000e+00  0.000000e+00  8.701715e-01  0.000000e+00  9.277771e-06  2.322138e-10  9.999978e-07  3.999992e-07 -2.170522e-21  8.701715e-01  4.500000e+01 
 0.000000e+00  0.000000e+00  1.800000e+00  1.800000e+00  1.800000e+00  0.000000e+00  1.800000e+00  0.000000e+00  0.000000e+00  0.000000e+00  0.000000e+00  8.803777e-01  0.000000e+00  9.280056e-06  2.322151e-10  9.999978e-07  3.999992e-07  8.258174e-19  8.803777e-01  4.600000e+01 
 0.000000e+00  1.800000e+00  1.800000e+00  1.800000e+00  1.800000e+00  0.000000e+00  1.800000e+00  0.000000e+00  0.000000e+00  0.000000e+00  0.000000e+00  8.905839e-01  0.000000e+00  9.281721e-06  2.322164e-10  9.999978e-07  3.999992e-07 -3.288063e-18  8.905839e-01  4.700000e+01 
 0.000000e+00  0.000000e+00  0.000000e+00  0.000000e+00  0.000000e+00  1.800000e+00  1.800000e+00  0.000000e+00  0.000000e+00  0.000000e+00  0.000000e+00  9.002499e-01  0.000000e+00  9.282801e-06  2.378372e-10  9.999978e-07  3.999992e-07  4.132674e-18  9.002499e-01  4.800000e+01 
 0.000000e+00  1.800000e+00  0.000000e+00  0.000000e+00  0.000000e+00  1.800000e+00  1.800000e+00  0.000000e+00  0.000000e+00  0.000000e+00  0.000000e+00  9.104560e-01  0.000000e+00  9.283533e-06  2.378401e-10  9.999978e-07  3.999992e-07 -7.162590e-19  9.104560e-01  4.900000e+01 
 0.000000e+00  0.000000e+00  1.800000e+00  0.000000e+00  0.000000e+00  1.800000e+00  1.800000e+00  0.000000e+00  0.000000e+00  0.000000e+00  0.000000e+00  9.201244e-01  0.000000e+00  9.283890e-06  2.378401e-10  9.999978e-07  3.999992e-07 -2.623685e-18  9.201244e-01  5.000000e+01 
 0.000000e+00  1.800000e+00  1.800000e+00  0.000000e+00  0.000000e+00  1.800000e+00  1.800000e+00  0.000000e+00  0.000000e+00  0.000000e+00  0.000000e+00  9.292552e-01  0.000000e+00  9.283978e-06  2.378414e-10  9.999978e-07  3.999992e-07 -4.657053e-18  9.292552e-01  5.100000e+01 
 0.000000e+00  0.000000e+00  0.000000e+00  1.800000e+00  0.000000e+00  1.800000e+00  1.800000e+00  0.000000e+00  0.000000e+00  0.000000e+00  0.000000e+00  9.389235e-01  0.000000e+00  9.283858e-06  2.378377e-10  9.999978e-07  3.999992e-07 -1.468808e-18  9.389235e-01  5.200000e+01 
 0.000000e+00  1.800000e+00  0.000000e+00  1.800000e+00  0.000000e+00  1.800000e+00  1.800000e+00  0.000000e+00  0.000000e+00  0.000000e+00  0.000000e+00  9.480543e-01  0.000000e+00  9.283580e-06  2.378394e-10  9.999978e-07  3.999992e-07  3.719401e-19  9.480543e-01  5.300000e+01 
 0.000000e+00  0.000000e+00  1.800000e+00  1.800000e+00  0.000000e+00  1.800000e+00  1.800000e+00  0.000000e+00  0.000000e+00  0.000000e+00  0.000000e+00  9.571850e-01  0.000000e+00  9.283167e-06  2.378397e-10  9.999978e-07  3.999992e-07 -1.900861e-18  9.571850e-01  5.400000e+01 
 0.000000e+00  1.800000e+00  1.800000e+00  1.800000e+00  0.000000e+00  1.800000e+00  1.800000e+00  0.000000e+00  0.000000e+00  0.000000e+00  0.000000e+00  9.663158e-01  0.000000e+00  9.282654e-06  2.378424e-10  9.999978e-07  3.999992e-07 -1.020953e-18  9.663158e-01  5.500000e+01 
 0.000000e+00  0.000000e+00  0.000000e+00  0.000000e+00  1.800000e+00  1.800000e+00  1.800000e+00  0.000000e+00  0.000000e+00  0.000000e+00  0.000000e+00  9.754462e-01  0.000000e+00  9.282050e-06  2.378399e-10  9.999978e-07  3.999992e-07 -3.062831e-18  9.754462e-01  5.600000e+01 
 0.000000e+00  1.800000e+00  0.000000e+00  0.000000e+00  1.800000e+00  1.800000e+00  1.800000e+00  0.000000e+00  0.000000e+00  0.000000e+00  0.000000e+00  9.845770e-01  0.000000e+00  9.281377e-06  2.378424e-10  9.999978e-07  3.999992e-07 -2.412350e-18  9.845770e-01  5.700000e+01 
 0.000000e+00  0.000000e+00  1.800000e+00  0.000000e+00  1.800000e+00  1.800000e+00  1.800000e+00  0.000000e+00  0.000000e+00  0.000000e+00  0.000000e+00  9.931722e-01  0.000000e+00  9.280695e-06  2.378383e-10  9.999978e-07  3.999992e-07  3.675302e-18  9.931722e-01  5.800000e+01 
 0.000000e+00  1.800000e+00  1.800000e+00  0.000000e+00  1.800000e+00  1.800000e+00  1.800000e+00  0.000000e+00  0.000000e+00  0.000000e+00  0.000000e+00  1.001767e+00  0.000000e+00  9.279973e-06  2.378434e-10  9.999978e-07  3.999992e-07  4.867051e-18  1.001767e+00  5.900000e+01 
 0.000000e+00  0.000000e+00  0.000000e+00  1.800000e+00  1.800000e+00  1.800000e+00  1.800000e+00  0.000000e+00  0.000000e+00  0.000000e+00  0.000000e+00  1.010363e+00  0.000000e+00  9.279215e-06  2.378427e-10  9.999978e-07  3.999993e-07  7.914332e-19  1.010363e+00  6.000000e+01 
 0.000000e+00  1.800000e+00  0.000000e+00  1.800000e+00  1.800000e+00  1.800000e+00  1.800000e+00  0.000000e+00  0.000000e+00  0.000000e+00  0.000000e+00  1.018958e+00  0.000000e+00  9.278435e-06  2.378415e-10  9.999978e-07  3.999992e-07 -2.173063e-18  1.018958e+00  6.100000e+01 
 0.000000e+00  0.000000e+00  1.800000e+00  1.800000e+00  1.800000e+00  1.800000e+00  1.800000e+00  0.000000e+00  0.000000e+00  0.000000e+00  0.000000e+00  1.027553e+00  0.000000e+00  9.277632e-06  2.378415e-10  9.999978e-07  3.999992e-07 -4.053953e-18  1.027553e+00  6.200000e+01 
 0.000000e+00  1.800000e+00  1.800000e+00  1.800000e+00  1.800000e+00  1.800000e+00  1.800000e+00  0.000000e+00  0.000000e+00  0.000000e+00  0.000000e+00  1.036148e+00  0.000000e+00  9.276813e-06  2.378428e-10  9.999978e-07  3.999992e-07  2.153753e-18  1.036148e+00  6.300000e+01 
 0.000000e+00  0.000000e+00  0.000000e+00  0.000000e+00  0.000000e+00  0.000000e+00  0.000000e+00  1.800000e+00  0.000000e+00  0.000000e+00  0.000000e+00  1.044227e+00  0.000000e+00  9.276149e-06  2.376755e-10  9.999978e-07  3.999992e-07  4.142097e-18  1.044227e+00  6.400000e+01 
 0.000000e+00  1.800000e+00  0.000000e+00  0.000000e+00  0.000000e+00  0.000000e+00  0.000000e+00  1.800000e+00  0.000000e+00  0.000000e+00  0.000000e+00  1.049540e+00  0.000000e+00  9.276728e-06  2.376729e-10  9.999978e-07  3.999992e-07 -5.553876e-18  1.049540e+00  6.500000e+01 
 0.000000e+00  0.000000e+00  1.800000e+00  0.000000e+00  0.000000e+00  0.000000e+00  0.000000e+00  1.800000e+00  0.000000e+00  0.000000e+00  0.000000e+00  1.055407e+00  0.000000e+00  9.277166e-06  2.376745e-10  9.999978e-07  3.999992e-07 -1.011754e-18  1.055407e+00  6.600000e+01 
 0.000000e+00  1.800000e+00  1.800000e+00  0.000000e+00  0.000000e+00  0.000000e+00  0.000000e+00  1.800000e+00  0.000000e+00  0.000000e+00  0.000000e+00  1.061986e+00  0.000000e+00  9.276633e-06  2.376742e-10  9.999978e-07  3.999992e-07  5.084673e-18  1.061986e+00  6.700000e+01 
 0.000000e+00  0.000000e+00  0.000000e+00  1.800000e+00  0.000000e+00  0.000000e+00  0.000000e+00  1.800000e+00  0.000000e+00  0.000000e+00  0.000000e+00  1.069102e+00  0.000000e+00  9.277226e-06  2.376717e-10  9.999978e-07  3.999992e-07  1.857384e-19  1.069102e+00  6.800000e+01 
 0.000000e+00  1.800000e+00  0.000000e+00  1.800000e+00  0.000000e+00  0.000000e+00  0.000000e+00  1.800000e+00  0.000000e+00  0.000000e+00  0.000000e+00  1.077279e+00  0.000000e+00  9.275209e-06  2.376765e-10  9.999978e-07  3.999992e-07  6.940760e-18  1.077279e+00  6.900000e+01 
