 v-sweep       d0            d1            d2            d3            d4            d5            d6            d7            d8            d9            load          v-sweep       vmeas#branch  vmeas1#branch vmeas2#branch vmeas3#branch vmeas5#branch vout          ndata        
 0.000000e+00  0.000000e+00  0.000000e+00  0.000000e+00  0.000000e+00  0.000000e+00  0.000000e+00  0.000000e+00  0.000000e+00  0.000000e+00  0.000000e+00  6.500988e-04  0.000000e+00  7.717795e-06  2.253342e-10  9.139875e-07  3.652692e-07  1.680831e-20  6.500988e-04  0.000000e+00 
 0.000000e+00  1.800000e+00  0.000000e+00  0.000000e+00  0.000000e+00  0.000000e+00  0.000000e+00  0.000000e+00  0.000000e+00  0.000000e+00  0.000000e+00  5.267449e-02  0.000000e+00  7.786260e-06  2.253326e-10  9.139875e-07  3.652692e-07  6.204516e-20  5.267449e-02  1.000000e+00 
 0.000000e+00  0.000000e+00  1.800000e+00  0.000000e+00  0.000000e+00  0.000000e+00  0.000000e+00  0.000000e+00  0.000000e+00  0.000000e+00  0.000000e+00  9.891367e-02  0.000000e+00  7.803486e-06  2.253333e-10  9.139875e-07  3.652692e-07  6.614798e-20  9.891367e-02  2.000000e+00 
 0.000000e+00  1.800000e+00  1.800000e+00  0.000000e+00  0.000000e+00  0.000000e+00  0.000000e+00  0.000000e+00  0.000000e+00  0.000000e+00  0.000000e+00  1.397662e-01  0.000000e+00  7.808569e-06  2.253312e-10  9.139875e-07  3.652692e-07 -4.740539e-19  1.397662e-01  3.000000e+00 
 0.000000e+00  0.000000e+00  0.000000e+00  1.800000e+00  0.000000e+00  0.000000e+00  0.000000e+00  0.000000e+00  0.000000e+00  0.000000e+00  0.000000e+00  1.768500e-01  0.000000e+00  7.810832e-06  2.253411e-10  9.139875e-07  3.652692e-07 -1.616576e-19  1.768500e-01  4.000000e+00 
 0.000000e+00  1.800000e+00  0.000000e+00  1.800000e+00  0.000000e+00  0.000000e+00  0.000000e+00  0.000000e+00  0.000000e+00  0.000000e+00  0.000000e+00  2.112411e-01  0.000000e+00  7.812134e-06  2.253317e-10  9.139875e-07  3.652692e-07  5.720649e-19  2.112411e-01  5.000000e+00 
 0.000000e+00  0.000000e+00  1.800000e+00  1.800000e+00  0.000000e+00  0.000000e+00  0.000000e+00  0.000000e+00  0.000000e+00  0.000000e+00  0.000000e+00  2.429397e-01  0.000000e+00  7.812995e-06  2.253366e-10  9.139875e-07  3.652692e-07  4.232055e-19  2.429397e-01  6.000000e+00 
 0.000000e+00  1.800000e+00  1.800000e+00  1.800000e+00  0.000000e+00  0.000000e+00  0.000000e+00  0.000000e+00  0.000000e+00  0.000000e+00  0.000000e+00  2.724848e-01  0.000000e+00  7.813653e-06  2.253387e-10  9.139875e-07  3.652692e-07  2.738960e-19  2.724848e-01  7.000000e+00 
 0.000000e+00  0.000000e+00  0.000000e+00  0.000000e+00  1.800000e+00  0.000000e+00  0.000000e+00  0.000000e+00  0.000000e+00  0.000000e+00  0.000000e+00  3.004148e-01  0.000000e+00  7.814223e-06  2.253319e-10  9.139875e-07  3.652692e-07 -3.603066e-19  3.004148e-01  8.000000e+00 
 0.000000e+00  1.800000e+00  0.000000e+00  0.000000e+00  1.800000e+00  0.000000e+00  0.000000e+00  0.000000e+00  0.000000e+00  0.000000e+00  0.000000e+00  3.267294e-01  0.000000e+00  7.814793e-06  2.253325e-10  9.139875e-07  3.652692e-07  4.997494e-20  3.267294e-01  9.000000e+00 
 0.000000e+00  0.000000e+00  1.800000e+00  0.000000e+00  1.800000e+00  0.000000e+00  0.000000e+00  0.000000e+00  0.000000e+00  0.000000e+00  0.000000e+00  3.514293e-01  0.000000e+00  7.815436e-06  2.253313e-10  9.139875e-07  3.652692e-07 -8.307011e-19  3.514293e-01  1.000000e+01 
 0.000000e+00  1.800000e+00  1.800000e+00  0.000000e+00  1.800000e+00  0.000000e+00  0.000000e+00  0.000000e+00  0.000000e+00  0.000000e+00  0.000000e+00  3.750514e-01  0.000000e+00  7.816221e-06  2.253329e-10  9.139875e-07  3.652692e-07  8.386156e-19  3.750514e-01  1.100000e+01 
 0.000000e+00  0.000000e+00  0.000000e+00  1.800000e+00  1.800000e+00  0.000000e+00  0.000000e+00  0.000000e+00  0.000000e+00  0.000000e+00  0.000000e+00  3.975967e-01  0.000000e+00  7.817248e-06  2.253376e-10  9.139875e-07  3.652692e-07 -1.990858e-19  3.975967e-01  1.200000e+01 
 0.000000e+00  1.800000e+00  0.000000e+00  1.800000e+00  1.800000e+00  0.000000e+00  0.000000e+00  0.000000e+00  0.000000e+00  0.000000e+00  0.000000e+00  4.190652e-01  0.000000e+00  7.818610e-06  2.253349e-10  9.139875e-07  3.652692e-07  5.312220e-19  4.190652e-01  1.300000e+01 
 0.000000e+00  0.000000e+00  1.800000e+00  1.800000e+00  1.800000e+00  0.000000e+00  0.000000e+00  0.000000e+00  0.000000e+00  0.000000e+00  0.000000e+00  4.399958e-01  0.000000e+00  7.820478e-06  2.253337e-10  9.139875e-07  3.652692e-07 -3.945850e-19  4.399958e-01  1.400000e+01 
 0.000000e+00  1.800000e+00  1.800000e+00  1.800000e+00  1.800000e+00  0.000000e+00  0.000000e+00  0.000000e+00  0.000000e+00  0.000000e+00  0.000000e+00  4.598497e-01  0.000000e+00  7.822971e-06  2.253390e-10  9.139875e-07  3.652692e-07  5.608615e-19  4.598497e-01  1.500000e+01 
 0.000000e+00  0.000000e+00  0.000000e+00  0.000000e+00  0.000000e+00  1.800000e+00  0.000000e+00  0.000000e+00  0.000000e+00  0.000000e+00  0.000000e+00  4.791620e-01  0.000000e+00  7.826316e-06  2.308474e-10  9.139875e-07  3.652692e-07  2.773967e-19  4.791620e-01  1.600000e+01 
 0.000000e+00  1.800000e+00  0.000000e+00  0.000000e+00  0.000000e+00  1.800000e+00  0.000000e+00  0.000000e+00  0.000000e+00  0.000000e+00  0.000000e+00  4.973999e-01  0.000000e+00  7.830694e-06  2.308537e-10  9.139875e-07  3.652692e-07  7.380502e-19  4.973999e-01  1.700000e+01 
 0.000000e+00  0.000000e+00  1.800000e+00  0.000000e+00  0.000000e+00  1.800000e+00  0.000000e+00  0.000000e+00  0.000000e+00  0.000000e+00  0.000000e+00  5.156378e-01  0.000000e+00  7.836630e-06  2.308477e-10  9.139875e-07  3.652692e-07  1.501909e-18  5.156378e-01  1.800000e+01 
 0.000000e+00  1.800000e+00  1.800000e+00  0.000000e+00  0.000000e+00  1.800000e+00  0.000000e+00  0.000000e+00  0.000000e+00  0.000000e+00  0.000000e+00  5.327989e-01  0.000000e+00  7.844088e-06  2.308475e-10  9.139875e-07  3.652692e-07  4.711224e-19  5.327989e-01  1.900000e+01 
 0.000000e+00  0.000000e+00  0.000000e+00  1.800000e+00  0.000000e+00  1.800000e+00  0.000000e+00  0.000000e+00  0.000000e+00  0.000000e+00  0.000000e+00  5.499599e-01  0.000000e+00  7.853883e-06  2.308551e-10  9.139875e-07  3.652692e-07  2.582789e-20  5.499599e-01  2.000000e+01 
 0.000000e+00  1.800000e+00  0.000000e+00  1.800000e+00  0.000000e+00  1.800000e+00  0.000000e+00  0.000000e+00  0.000000e+00  0.000000e+00  0.000000e+00  5.660441e-01  0.000000e+00  7.865716e-06  2.308487e-10  9.139875e-07  3.652692e-07 -7.216456e-19  5.660441e-01  2.100000e+01 
 0.000000e+00  0.000000e+00  1.800000e+00  1.800000e+00  0.000000e+00  1.800000e+00  0.000000e+00  0.000000e+00  0.000000e+00  0.000000e+00  0.000000e+00  5.821284e-01  0.000000e+00  7.880667e-06  2.308467e-10  9.139875e-07  3.652692e-07  8.885839e-19  5.821284e-01  2.200000e+01 
 0.000000e+00  1.800000e+00  1.800000e+00  1.800000e+00  0.000000e+00  1.800000e+00  0.000000e+00  0.000000e+00  0.000000e+00  0.000000e+00  0.000000e+00  5.976739e-01  0.000000e+00  7.898595e-06  2.308476e-10  9.139875e-07  3.652692e-07 -4.289163e-19  5.976739e-01  2.300000e+01 
 0.000000e+00  0.000000e+00  0.000000e+00  0.000000e+00  1.800000e+00  1.800000e+00  0.000000e+00  0.000000e+00  0.000000e+00  0.000000e+00  0.000000e+00  6.132190e-01  0.000000e+00  7.920409e-06  2.308470e-10  9.139875e-07  3.652692e-07  1.249016e-18  6.132190e-01  2.400000e+01 
 0.000000e+00  1.800000e+00  0.000000e+00  0.000000e+00  1.800000e+00  1.800000e+00  0.000000e+00  0.000000e+00  0.000000e+00  0.000000e+00  0.000000e+00  6.276879e-01  0.000000e+00  7.944545e-06  2.308467e-10  9.139875e-07  3.652692e-07 -3.851386e-18  6.276879e-01  2.500000e+01 
 0.000000e+00  0.000000e+00  1.800000e+00  0.000000e+00  1.800000e+00  1.800000e+00  0.000000e+00  0.000000e+00  0.000000e+00  0.000000e+00  0.000000e+00  6.421571e-01  0.000000e+00  7.972564e-06  2.308465e-10  9.139875e-07  3.652692e-07 -4.500392e-19  6.421571e-01  2.600000e+01 
 0.000000e+00  1.800000e+00  1.800000e+00  0.000000e+00  1.800000e+00  1.800000e+00  0.000000e+00  0.000000e+00  0.000000e+00  0.000000e+00  0.000000e+00  6.560876e-01  0.000000e+00  8.003232e-06  2.308475e-10  9.139875e-07  3.652692e-07  1.020132e-18  6.560876e-01  2.700000e+01 
 0.000000e+00  0.000000e+00  0.000000e+00  1.800000e+00  1.800000e+00  1.800000e+00  0.000000e+00  0.000000e+00  0.000000e+00  0.000000e+00  0.000000e+00  6.700183e-01  0.000000e+00  8.037383e-06  2.308466e-10  9.139875e-07  3.652692e-07 -1.604327e-18  6.700183e-01  2.800000e+01 
 0.000000e+00  1.800000e+00  0.000000e+00  1.800000e+00  1.800000e+00  1.800000e+00  0.000000e+00  0.000000e+00  0.000000e+00  0.000000e+00  0.000000e+00  6.834114e-01  0.000000e+00  8.073173e-06  2.308546e-10  9.139875e-07  3.652692e-07  2.799609e-18  6.834114e-01  2.900000e+01 
 0.000000e+00  0.000000e+00  1.800000e+00  1.800000e+00  1.800000e+00  1.800000e+00  0.000000e+00  0.000000e+00  0.000000e+00  0.000000e+00  0.000000e+00  6.968048e-01  0.000000e+00  8.111371e-06  2.308475e-10  9.139875e-07  3.652692e-07 -1.511180e-18  6.968048e-01  3.000000e+01 
 0.000000e+00  1.800000e+00  1.800000e+00  1.800000e+00  1.800000e+00  1.800000e+00  0.000000e+00  0.000000e+00  0.000000e+00  0.000000e+00  0.000000e+00  7.096605e-01  0.000000e+00  8.149661e-06  2.308459e-10  9.139875e-07  3.652692e-07  6.502368e-19  7.096605e-01  3.100000e+01 
 0.000000e+00  0.000000e+00  0.000000e+00  0.000000e+00  0.000000e+00  0.000000e+00  1.800000e+00  0.000000e+00  0.000000e+00  0.000000e+00  0.000000e+00  7.225135e-01  0.000000e+00  8.188740e-06  2.253314e-10  9.139875e-07  3.652692e-07 -3.503447e-18  7.225135e-01  3.200000e+01 
 0.000000e+00  1.800000e+00  0.000000e+00  0.000000e+00  0.000000e+00  0.000000e+00  1.800000e+00  0.000000e+00  0.000000e+00  0.000000e+00  0.000000e+00  7.348304e-01  0.000000e+00  8.226149e-06  2.253383e-10  9.139875e-07  3.652692e-07 -4.720223e-19  7.348304e-01  3.300000e+01 
 0.000000e+00  0.000000e+00  1.800000e+00  0.000000e+00  0.000000e+00  0.000000e+00  1.800000e+00  0.000000e+00  0.000000e+00  0.000000e+00  0.000000e+00  7.471472e-01  0.000000e+00  8.262654e-06  2.253398e-10  9.139875e-07  3.652692e-07 -2.210531e-18  7.471472e-01  3.400000e+01 
 0.000000e+00  1.800000e+00  1.800000e+00  0.000000e+00  0.000000e+00  0.000000e+00  1.800000e+00  0.000000e+00  0.000000e+00  0.000000e+00  0.000000e+00  7.594641e-01  0.000000e+00  8.297413e-06  2.253329e-10  9.139875e-07  3.652692e-07 -1.756985e-18  7.594641e-01  3.500000e+01 
 0.000000e+00  0.000000e+00  0.000000e+00  1.800000e+00  0.000000e+00  0.000000e+00  1.800000e+00  0.000000e+00  0.000000e+00  0.000000e+00  0.000000e+00  7.712428e-01  0.000000e+00  8.328326e-06  2.253374e-10  9.139875e-07  3.652692e-07 -1.961569e-18  7.712428e-01  3.600000e+01 
 0.000000e+00  1.800000e+00  0.000000e+00  1.800000e+00  0.000000e+00  0.000000e+00  1.800000e+00  0.000000e+00  0.000000e+00  0.000000e+00  0.000000e+00  7.824826e-01  0.000000e+00  8.355214e-06  2.253321e-10  9.139875e-07  3.652692e-07 -4.966141e-18  7.824826e-01  3.700000e+01 
 0.000000e+00  0.000000e+00  1.800000e+00  1.800000e+00  0.000000e+00  0.000000e+00  1.800000e+00  0.000000e+00  0.000000e+00  0.000000e+00  0.000000e+00  7.942611e-01  0.000000e+00  8.380322e-06  2.253321e-10  9.139875e-07  3.652692e-07 -6.590049e-19  7.942611e-01  3.800000e+01 
 0.000000e+00  1.800000e+00  1.800000e+00  1.800000e+00  0.000000e+00  0.000000e+00  1.800000e+00  0.000000e+00  0.000000e+00  0.000000e+00  0.000000e+00  8.055006e-01  0.000000e+00  8.401212e-06  2.253321e-10  9.139875e-07  3.652692e-07 -4.082381e-18  8.055006e-01  3.900000e+01 
 0.000000e+00  0.000000e+00  0.000000e+00  0.000000e+00  1.800000e+00  0.000000e+00  1.800000e+00  0.000000e+00  0.000000e+00  0.000000e+00  0.000000e+00  8.162005e-01  0.000000e+00  8.418334e-06  2.253313e-10  9.139875e-07  3.652692e-07 -6.926294e-18  8.162005e-01  4.000000e+01 
 0.000000e+00  1.800000e+00  0.000000e+00  0.000000e+00  1.800000e+00  0.000000e+00  1.800000e+00  0.000000e+00  0.000000e+00  0.000000e+00  0.000000e+00  8.274397e-01  0.000000e+00  8.433561e-06  2.253332e-10  9.139875e-07  3.652692e-07  5.266719e-18  8.274397e-01  4.100000e+01 
 0.000000e+00  0.000000e+00  1.800000e+00  0.000000e+00  1.800000e+00  0.000000e+00  1.800000e+00  0.000000e+00  0.000000e+00  0.000000e+00  0.000000e+00  8.381398e-01  0.000000e+00  8.445636e-06  2.253332e-10  9.139875e-07  3.652692e-07  7.911235e-18  8.381398e-01  4.200000e+01 
 0.000000e+00  1.800000e+00  1.800000e+00  0.000000e+00  1.800000e+00  0.000000e+00  1.800000e+00  0.000000e+00  0.000000e+00  0.000000e+00  0.000000e+00  8.483019e-01  0.000000e+00  8.455156e-06  2.253360e-10  9.139875e-07  3.652692e-07  1.409210e-17  8.483019e-01  4.300000e+01 
 0.000000e+00  0.000000e+00  0.000000e+00  1.800000e+00  1.800000e+00  0.000000e+00  1.800000e+00  0.000000e+00  0.000000e+00  0.000000e+00  0.000000e+00  8.590018e-01  0.000000e+00  8.463368e-06  2.253322e-10  9.139875e-07  3.652692e-07 -1.159469e-18  8.590018e-01  4.400000e+01 
 0.000000e+00  1.800000e+00  0.000000e+00  1.800000e+00  1.800000e+00  0.000000e+00  1.800000e+00  0.000000e+00  0.000000e+00  0.000000e+00  0.000000e+00  8.691637e-01  0.000000e+00  8.469669e-06  2.253316e-10  9.139875e-07  3.652692e-07 -2.711114e-18  8.691637e-01  4.500000e+01 
 0.000000e+00  0.000000e+00  1.800000e+00  1.800000e+00  1.800000e+00  0.000000e+00  1.800000e+00  0.000000e+00  0.000000e+00  0.000000e+00  0.000000e+00  8.793256e-01  0.000000e+00  8.474713e-06  2.253356e-10  9.139875e-07  3.652692e-07 -2.181217e-17  8.793256e-01  4.600000e+01 
 0.000000e+00  1.800000e+00  1.800000e+00  1.800000e+00  1.800000e+00  0.000000e+00  1.800000e+00  0.000000e+00  0.000000e+00  0.000000e+00  0.000000e+00  8.894875e-01  0.000000e+00  8.478678e-06  2.253354e-10  9.139875e-07  3.652692e-07  4.629617e-18  8.894875e-01  4.700000e+01 
 0.000000e+00  0.000000e+00  0.000000e+00  0.000000e+00  0.000000e+00  1.800000e+00  1.800000e+00  0.000000e+00  0.000000e+00  0.000000e+00  0.000000e+00  8.991078e-01  0.000000e+00  8.481575e-06  2.308466e-10  9.139875e-07  3.652692e-07  1.382515e-17  8.991078e-01  4.800000e+01 
 0.000000e+00  1.800000e+00  0.000000e+00  0.000000e+00  0.000000e+00  1.800000e+00  1.800000e+00  0.000000e+00  0.000000e+00  0.000000e+00  0.000000e+00  9.092695e-01  0.000000e+00  8.483892e-06  2.308450e-10  9.139875e-07  3.652692e-07 -1.115767e-18  9.092695e-01  4.900000e+01 
 0.000000e+00  0.000000e+00  1.800000e+00  0.000000e+00  0.000000e+00  1.800000e+00  1.800000e+00  0.000000e+00  0.000000e+00  0.000000e+00  0.000000e+00  9.188922e-01  0.000000e+00  8.485485e-06  2.308449e-10  9.139875e-07  3.652692e-07  3.063745e-18  9.188922e-01  5.000000e+01 
 0.000000e+00  1.800000e+00  1.800000e+00  0.000000e+00  0.000000e+00  1.800000e+00  1.800000e+00  0.000000e+00  0.000000e+00  0.000000e+00  0.000000e+00  9.279760e-01  0.000000e+00  8.486537e-06  2.308521e-10  9.139875e-07  3.652692e-07 -1.210856e-17  9.279760e-01  5.100000e+01 
 0.000000e+00  0.000000e+00  0.000000e+00  1.800000e+00  0.000000e+00  1.800000e+00  1.800000e+00  0.000000e+00  0.000000e+00  0.000000e+00  0.000000e+00  9.375986e-01  0.000000e+00  8.487262e-06  2.308507e-10  9.139875e-07  3.652692e-07 -1.538541e-17  9.375986e-01  5.200000e+01 
 0.000000e+00  1.800000e+00  0.000000e+00  1.800000e+00  0.000000e+00  1.800000e+00  1.800000e+00  0.000000e+00  0.000000e+00  0.000000e+00  0.000000e+00  9.466824e-01  0.000000e+00  8.487641e-06  2.308480e-10  9.139875e-07  3.652692e-07  1.252678e-17  9.466824e-01  5.300000e+01 
 0.000000e+00  0.000000e+00  1.800000e+00  1.800000e+00  0.000000e+00  1.800000e+00  1.800000e+00  0.000000e+00  0.000000e+00  0.000000e+00  0.000000e+00  9.557661e-01  0.000000e+00  8.487773e-06  2.308463e-10  9.139875e-07  3.652692e-07 -8.638810e-19  9.557661e-01  5.400000e+01 
 0.000000e+00  1.800000e+00  1.800000e+00  1.800000e+00  0.000000e+00  1.800000e+00  1.800000e+00  0.000000e+00  0.000000e+00  0.000000e+00  0.000000e+00  9.648499e-01  0.000000e+00  8.487708e-06  2.308490e-10  9.139875e-07  3.652692e-07 -1.505336e-19  9.648499e-01  5.500000e+01 
 0.000000e+00  0.000000e+00  0.000000e+00  0.000000e+00  1.800000e+00  1.800000e+00  1.800000e+00  0.000000e+00  0.000000e+00  0.000000e+00  0.000000e+00  9.739333e-01  0.000000e+00  8.487477e-06  2.308453e-10  9.139875e-07  3.652692e-07 -8.079318e-18  9.739333e-01  5.600000e+01 
 0.000000e+00  1.800000e+00  0.000000e+00  0.000000e+00  1.800000e+00  1.800000e+00  1.800000e+00  0.000000e+00  0.000000e+00  0.000000e+00  0.000000e+00  9.830170e-01  0.000000e+00  8.487122e-06  2.308460e-10  9.139875e-07  3.652692e-07 -1.897334e-17  9.830170e-01  5.700000e+01 
 0.000000e+00  0.000000e+00  1.800000e+00  0.000000e+00  1.800000e+00  1.800000e+00  1.800000e+00  0.000000e+00  0.000000e+00  0.000000e+00  0.000000e+00  9.915639e-01  0.000000e+00  8.486695e-06  2.308455e-10  9.139875e-07  3.652692e-07  9.966812e-18  9.915639e-01  5.800000e+01 
 0.000000e+00  1.800000e+00  1.800000e+00  0.000000e+00  1.800000e+00  1.800000e+00  1.800000e+00  0.000000e+00  0.000000e+00  0.000000e+00  0.000000e+00  1.000111e+00  0.000000e+00  8.486187e-06  2.308449e-10  9.139875e-07  3.652692e-07  1.700440e-17  1.000111e+00  5.900000e+01 
 0.000000e+00  0.000000e+00  0.000000e+00  1.800000e+00  1.800000e+00  1.800000e+00  1.800000e+00  0.000000e+00  0.000000e+00  0.000000e+00  0.000000e+00  1.008658e+00  0.000000e+00  8.485624e-06  2.308461e-10  9.139875e-07  3.652692e-07  3.129297e-17  1.008658e+00  6.000000e+01 
 0.000000e+00  1.800000e+00  0.000000e+00  1.800000e+00  1.800000e+00  1.800000e+00  1.800000e+00  0.000000e+00  0.000000e+00  0.000000e+00  0.000000e+00  1.017205e+00  0.000000e+00  8.485011e-06  2.308455e-10  9.139875e-07  3.652692e-07 -1.633789e-17  1.017205e+00  6.100000e+01 
 0.000000e+00  0.000000e+00  1.800000e+00  1.800000e+00  1.800000e+00  1.800000e+00  1.800000e+00  0.000000e+00  0.000000e+00  0.000000e+00  0.000000e+00  1.025752e+00  0.000000e+00  8.484356e-06  2.308457e-10  9.139875e-07  3.652692e-07  2.666010e-18  1.025752e+00  6.200000e+01 
 0.000000e+00  1.800000e+00  1.800000e+00  1.800000e+00  1.800000e+00  1.800000e+00  1.800000e+00  0.000000e+00  0.000000e+00  0.000000e+00  0.000000e+00  1.034299e+00  0.000000e+00  8.483671e-06  2.308441e-10  9.139875e-07  3.652692e-07 -2.304008e-17  1.034299e+00  6.300000e+01 
 0.000000e+00  0.000000e+00  0.000000e+00  0.000000e+00  0.000000e+00  0.000000e+00  0.000000e+00  1.800000e+00  0.000000e+00  0.000000e+00  0.000000e+00  1.042330e+00  0.000000e+00  8.483124e-06  2.304524e-10  9.139875e-07  3.652692e-07 -2.286989e-20  1.042330e+00  6.400000e+01 
 0.000000e+00  1.800000e+00  0.000000e+00  0.000000e+00  0.000000e+00  0.000000e+00  0.000000e+00  1.800000e+00  0.000000e+00  0.000000e+00  0.000000e+00  1.047374e+00  0.000000e+00  8.483987e-06  2.304518e-10  9.139875e-07  3.652692e-07  1.694066e-20  1.047374e+00  6.500000e+01 
 0.000000e+00  0.000000e+00  1.800000e+00  0.000000e+00  0.000000e+00  0.000000e+00  0.000000e+00  1.800000e+00  0.000000e+00  0.000000e+00  0.000000e+00  1.052992e+00  0.000000e+00  8.484700e-06  2.304518e-10  9.139875e-07  3.652692e-07  2.032879e-20  1.052992e+00  6.600000e+01 
 0.000000e+00  1.800000e+00  1.800000e+00  0.000000e+00  0.000000e+00  0.000000e+00  0.000000e+00  1.800000e+00  0.000000e+00  0.000000e+00  0.000000e+00  1.059361e+00  0.000000e+00  8.484451e-06  2.304512e-10  9.139875e-07  3.652692e-07  1.778769e-20  1.059361e+00  6.700000e+01 
 0.000000e+00  0.000000e+00  0.000000e+00  1.800000e+00  0.000000e+00  0.000000e+00  0.000000e+00  1.800000e+00  0.000000e+00  0.000000e+00  0.000000e+00  1.066338e+00  0.000000e+00  8.485247e-06  2.304518e-10  9.139875e-07  3.652692e-07 -2.286989e-20  1.066338e+00  6.800000e+01 
 0.000000e+00  1.800000e+00  0.000000e+00  1.800000e+00  0.000000e+00  0.000000e+00  0.000000e+00  1.800000e+00  0.000000e+00  0.000000e+00  0.000000e+00  1.074499e+00  0.000000e+00  8.483363e-06  2.304512e-10  9.139875e-07  3.652692e-07  3.811648e-20  1.074499e+00  6.900000e+01 
