 v-sweep       d0            d1            d2            d3            d4            d5            d6            d7            d8            d9            load          v-sweep       vmeas#branch  vmeas1#branch vmeas2#branch vmeas3#branch vmeas5#branch vout          ndata        
 0.000000e+00  0.000000e+00  0.000000e+00  0.000000e+00  0.000000e+00  0.000000e+00  0.000000e+00  0.000000e+00  0.000000e+00  0.000000e+00  0.000000e+00  6.500974e-04  0.000000e+00  7.717794e-06  2.253341e-10  9.139875e-07  3.652692e-07 -1.825621e-19  6.500974e-04  0.000000e+00 
 0.000000e+00  1.800000e+00  0.000000e+00  0.000000e+00  0.000000e+00  0.000000e+00  0.000000e+00  0.000000e+00  0.000000e+00  0.000000e+00  0.000000e+00  5.267449e-02  0.000000e+00  7.786259e-06  2.253400e-10  9.139875e-07  3.652692e-07 -2.947675e-19  5.267449e-02  1.000000e+00 
 0.000000e+00  0.000000e+00  1.800000e+00  0.000000e+00  0.000000e+00  0.000000e+00  0.000000e+00  0.000000e+00  0.000000e+00  0.000000e+00  0.000000e+00  9.891368e-02  0.000000e+00  7.803486e-06  2.253333e-10  9.139875e-07  3.652692e-07 -3.702990e-19  9.891368e-02  2.000000e+00 
 0.000000e+00  1.800000e+00  1.800000e+00  0.000000e+00  0.000000e+00  0.000000e+00  0.000000e+00  0.000000e+00  0.000000e+00  0.000000e+00  0.000000e+00  1.397662e-01  0.000000e+00  7.808567e-06  2.253390e-10  9.139875e-07  3.652692e-07 -4.063574e-19  1.397662e-01  3.000000e+00 
 0.000000e+00  0.000000e+00  0.000000e+00  1.800000e+00  0.000000e+00  0.000000e+00  0.000000e+00  0.000000e+00  0.000000e+00  0.000000e+00  0.000000e+00  1.768500e-01  0.000000e+00  7.810833e-06  2.253411e-10  9.139875e-07  3.652692e-07 -3.083200e-19  1.768500e-01  4.000000e+00 
 0.000000e+00  1.800000e+00  0.000000e+00  1.800000e+00  0.000000e+00  0.000000e+00  0.000000e+00  0.000000e+00  0.000000e+00  0.000000e+00  0.000000e+00  2.112411e-01  0.000000e+00  7.812132e-06  2.253372e-10  9.139875e-07  3.652692e-07 -4.026451e-19  2.112411e-01  5.000000e+00 
 0.000000e+00  0.000000e+00  1.800000e+00  1.800000e+00  0.000000e+00  0.000000e+00  0.000000e+00  0.000000e+00  0.000000e+00  0.000000e+00  0.000000e+00  2.429398e-01  0.000000e+00  7.812993e-06  2.253332e-10  9.139875e-07  3.652692e-07 -1.614657e-20  2.429398e-01  6.000000e+00 
 0.000000e+00  1.800000e+00  1.800000e+00  1.800000e+00  0.000000e+00  0.000000e+00  0.000000e+00  0.000000e+00  0.000000e+00  0.000000e+00  0.000000e+00  2.724848e-01  0.000000e+00  7.813652e-06  2.253344e-10  9.139875e-07  3.652692e-07  6.708501e-19  2.724848e-01  7.000000e+00 
 0.000000e+00  0.000000e+00  0.000000e+00  0.000000e+00  1.800000e+00  0.000000e+00  0.000000e+00  0.000000e+00  0.000000e+00  0.000000e+00  0.000000e+00  3.004148e-01  0.000000e+00  7.814224e-06  2.253337e-10  9.139875e-07  3.652692e-07  1.028827e-18  3.004148e-01  8.000000e+00 
 0.000000e+00  1.800000e+00  0.000000e+00  0.000000e+00  1.800000e+00  0.000000e+00  0.000000e+00  0.000000e+00  0.000000e+00  0.000000e+00  0.000000e+00  3.267294e-01  0.000000e+00  7.814792e-06  2.253312e-10  9.139875e-07  3.652692e-07  5.101124e-19  3.267294e-01  9.000000e+00 
 0.000000e+00  0.000000e+00  1.800000e+00  0.000000e+00  1.800000e+00  0.000000e+00  0.000000e+00  0.000000e+00  0.000000e+00  0.000000e+00  0.000000e+00  3.514294e-01  0.000000e+00  7.815434e-06  2.253314e-10  9.139875e-07  3.652692e-07  3.343199e-19  3.514294e-01  1.000000e+01 
 0.000000e+00  1.800000e+00  1.800000e+00  0.000000e+00  1.800000e+00  0.000000e+00  0.000000e+00  0.000000e+00  0.000000e+00  0.000000e+00  0.000000e+00  3.750515e-01  0.000000e+00  7.816221e-06  2.253359e-10  9.139875e-07  3.652692e-07 -5.917782e-19  3.750515e-01  1.100000e+01 
 0.000000e+00  0.000000e+00  0.000000e+00  1.800000e+00  1.800000e+00  0.000000e+00  0.000000e+00  0.000000e+00  0.000000e+00  0.000000e+00  0.000000e+00  3.975967e-01  0.000000e+00  7.817246e-06  2.253314e-10  9.139875e-07  3.652692e-07 -4.550420e-19  3.975967e-01  1.200000e+01 
 0.000000e+00  1.800000e+00  0.000000e+00  1.800000e+00  1.800000e+00  0.000000e+00  0.000000e+00  0.000000e+00  0.000000e+00  0.000000e+00  0.000000e+00  4.190652e-01  0.000000e+00  7.818608e-06  2.253346e-10  9.139875e-07  3.652692e-07 -4.897968e-19  4.190652e-01  1.300000e+01 
 0.000000e+00  0.000000e+00  1.800000e+00  1.800000e+00  1.800000e+00  0.000000e+00  0.000000e+00  0.000000e+00  0.000000e+00  0.000000e+00  0.000000e+00  4.399959e-01  0.000000e+00  7.820478e-06  2.253396e-10  9.139875e-07  3.652692e-07  2.032879e-20  4.399959e-01  1.400000e+01 
 0.000000e+00  1.800000e+00  1.800000e+00  1.800000e+00  1.800000e+00  0.000000e+00  0.000000e+00  0.000000e+00  0.000000e+00  0.000000e+00  0.000000e+00  4.598497e-01  0.000000e+00  7.822970e-06  2.253351e-10  9.139875e-07  3.652692e-07  1.256520e-19  4.598497e-01  1.500000e+01 
 0.000000e+00  0.000000e+00  0.000000e+00  0.000000e+00  0.000000e+00  1.800000e+00  0.000000e+00  0.000000e+00  0.000000e+00  0.000000e+00  0.000000e+00  4.791620e-01  0.000000e+00  7.826315e-06  2.308491e-10  9.139875e-07  3.652692e-07 -9.426683e-19  4.791620e-01  1.600000e+01 
 0.000000e+00  1.800000e+00  0.000000e+00  0.000000e+00  0.000000e+00  1.800000e+00  0.000000e+00  0.000000e+00  0.000000e+00  0.000000e+00  0.000000e+00  4.973999e-01  0.000000e+00  7.830693e-06  2.308479e-10  9.139875e-07  3.652692e-07  2.257938e-19  4.973999e-01  1.700000e+01 
 0.000000e+00  0.000000e+00  1.800000e+00  0.000000e+00  0.000000e+00  1.800000e+00  0.000000e+00  0.000000e+00  0.000000e+00  0.000000e+00  0.000000e+00  5.156378e-01  0.000000e+00  7.836629e-06  2.308464e-10  9.139875e-07  3.652692e-07  2.540318e-18  5.156378e-01  1.800000e+01 
 0.000000e+00  1.800000e+00  1.800000e+00  0.000000e+00  0.000000e+00  1.800000e+00  0.000000e+00  0.000000e+00  0.000000e+00  0.000000e+00  0.000000e+00  5.327989e-01  0.000000e+00  7.844086e-06  2.308477e-10  9.139875e-07  3.652692e-07  5.233539e-19  5.327989e-01  1.900000e+01 
 0.000000e+00  0.000000e+00  0.000000e+00  1.800000e+00  0.000000e+00  1.800000e+00  0.000000e+00  0.000000e+00  0.000000e+00  0.000000e+00  0.000000e+00  5.499599e-01  0.000000e+00  7.853883e-06  2.308516e-10  9.139875e-07  3.652692e-07 -8.745284e-19  5.499599e-01  2.000000e+01 
 0.000000e+00  1.800000e+00  0.000000e+00  1.800000e+00  0.000000e+00  1.800000e+00  0.000000e+00  0.000000e+00  0.000000e+00  0.000000e+00  0.000000e+00  5.660442e-01  0.000000e+00  7.865714e-06  2.308558e-10  9.139875e-07  3.652692e-07 -2.009261e-18  5.660442e-01  2.100000e+01 
 0.000000e+00  0.000000e+00  1.800000e+00  1.800000e+00  0.000000e+00  1.800000e+00  0.000000e+00  0.000000e+00  0.000000e+00  0.000000e+00  0.000000e+00  5.821284e-01  0.000000e+00  7.880665e-06  2.308558e-10  9.139875e-07  3.652692e-07 -2.484454e-19  5.821284e-01  2.200000e+01 
 0.000000e+00  1.800000e+00  1.800000e+00  1.800000e+00  0.000000e+00  1.800000e+00  0.000000e+00  0.000000e+00  0.000000e+00  0.000000e+00  0.000000e+00  5.976739e-01  0.000000e+00  7.898593e-06  2.308484e-10  9.139875e-07  3.652692e-07  1.036768e-18  5.976739e-01  2.300000e+01 
 0.000000e+00  0.000000e+00  0.000000e+00  0.000000e+00  1.800000e+00  1.800000e+00  0.000000e+00  0.000000e+00  0.000000e+00  0.000000e+00  0.000000e+00  6.132190e-01  0.000000e+00  7.920409e-06  2.308470e-10  9.139875e-07  3.652692e-07  9.383338e-19  6.132190e-01  2.400000e+01 
 0.000000e+00  1.800000e+00  0.000000e+00  0.000000e+00  1.800000e+00  1.800000e+00  0.000000e+00  0.000000e+00  0.000000e+00  0.000000e+00  0.000000e+00  6.276879e-01  0.000000e+00  7.944543e-06  2.308530e-10  9.139875e-07  3.652692e-07  9.986915e-19  6.276879e-01  2.500000e+01 
 0.000000e+00  0.000000e+00  1.800000e+00  0.000000e+00  1.800000e+00  1.800000e+00  0.000000e+00  0.000000e+00  0.000000e+00  0.000000e+00  0.000000e+00  6.421571e-01  0.000000e+00  7.972563e-06  2.308490e-10  9.139875e-07  3.652692e-07 -1.940281e-18  6.421571e-01  2.600000e+01 
 0.000000e+00  1.800000e+00  1.800000e+00  0.000000e+00  1.800000e+00  1.800000e+00  0.000000e+00  0.000000e+00  0.000000e+00  0.000000e+00  0.000000e+00  6.560876e-01  0.000000e+00  8.003231e-06  2.308475e-10  9.139875e-07  3.652692e-07  2.716693e-18  6.560876e-01  2.700000e+01 
 0.000000e+00  0.000000e+00  0.000000e+00  1.800000e+00  1.800000e+00  1.800000e+00  0.000000e+00  0.000000e+00  0.000000e+00  0.000000e+00  0.000000e+00  6.700182e-01  0.000000e+00  8.037382e-06  2.308479e-10  9.139875e-07  3.652692e-07  1.372458e-18  6.700182e-01  2.800000e+01 
 0.000000e+00  1.800000e+00  0.000000e+00  1.800000e+00  1.800000e+00  1.800000e+00  0.000000e+00  0.000000e+00  0.000000e+00  0.000000e+00  0.000000e+00  6.834114e-01  0.000000e+00  8.073175e-06  2.308473e-10  9.139875e-07  3.652692e-07  1.260405e-18  6.834114e-01  2.900000e+01 
 0.000000e+00  0.000000e+00  1.800000e+00  1.800000e+00  1.800000e+00  1.800000e+00  0.000000e+00  0.000000e+00  0.000000e+00  0.000000e+00  0.000000e+00  6.968048e-01  0.000000e+00  8.111372e-06  2.308476e-10  9.139875e-07  3.652692e-07 -1.011993e-18  6.968048e-01  3.000000e+01 
 0.000000e+00  1.800000e+00  1.800000e+00  1.800000e+00  1.800000e+00  1.800000e+00  0.000000e+00  0.000000e+00  0.000000e+00  0.000000e+00  0.000000e+00  7.096606e-01  0.000000e+00  8.149661e-06  2.308552e-10  9.139875e-07  3.652692e-07  1.462925e-18  7.096606e-01  3.100000e+01 
 0.000000e+00  0.000000e+00  0.000000e+00  0.000000e+00  0.000000e+00  0.000000e+00  1.800000e+00  0.000000e+00  0.000000e+00  0.000000e+00  0.000000e+00  7.225135e-01  0.000000e+00  8.188738e-06  2.253337e-10  9.139875e-07  3.652692e-07 -3.208501e-18  7.225135e-01  3.200000e+01 
 0.000000e+00  1.800000e+00  0.000000e+00  0.000000e+00  0.000000e+00  0.000000e+00  1.800000e+00  0.000000e+00  0.000000e+00  0.000000e+00  0.000000e+00  7.348304e-01  0.000000e+00  8.226149e-06  2.253316e-10  9.139875e-07  3.652692e-07  1.734723e-18  7.348304e-01  3.300000e+01 
 0.000000e+00  0.000000e+00  1.800000e+00  0.000000e+00  0.000000e+00  0.000000e+00  1.800000e+00  0.000000e+00  0.000000e+00  0.000000e+00  0.000000e+00  7.471472e-01  0.000000e+00  8.262652e-06  2.253313e-10  9.139875e-07  3.652692e-07  1.680619e-18  7.471472e-01  3.400000e+01 
 0.000000e+00  1.800000e+00  1.800000e+00  0.000000e+00  0.000000e+00  0.000000e+00  1.800000e+00  0.000000e+00  0.000000e+00  0.000000e+00  0.000000e+00  7.594641e-01  0.000000e+00  8.297410e-06  2.253328e-10  9.139875e-07  3.652692e-07  5.840358e-18  7.594641e-01  3.500000e+01 
 0.000000e+00  0.000000e+00  0.000000e+00  1.800000e+00  0.000000e+00  0.000000e+00  1.800000e+00  0.000000e+00  0.000000e+00  0.000000e+00  0.000000e+00  7.712428e-01  0.000000e+00  8.328327e-06  2.253310e-10  9.139875e-07  3.652692e-07  6.203193e-19  7.712428e-01  3.600000e+01 
 0.000000e+00  1.800000e+00  0.000000e+00  1.800000e+00  0.000000e+00  0.000000e+00  1.800000e+00  0.000000e+00  0.000000e+00  0.000000e+00  0.000000e+00  7.824826e-01  0.000000e+00  8.355214e-06  2.253334e-10  9.139875e-07  3.652692e-07 -9.500322e-18  7.824826e-01  3.700000e+01 
 0.000000e+00  0.000000e+00  1.800000e+00  1.800000e+00  0.000000e+00  0.000000e+00  1.800000e+00  0.000000e+00  0.000000e+00  0.000000e+00  0.000000e+00  7.942611e-01  0.000000e+00  8.380321e-06  2.253322e-10  9.139875e-07  3.652692e-07 -1.165663e-18  7.942611e-01  3.800000e+01 
 0.000000e+00  1.800000e+00  1.800000e+00  1.800000e+00  0.000000e+00  0.000000e+00  1.800000e+00  0.000000e+00  0.000000e+00  0.000000e+00  0.000000e+00  8.055006e-01  0.000000e+00  8.401210e-06  2.253312e-10  9.139875e-07  3.652692e-07  2.506860e-18  8.055006e-01  3.900000e+01 
 0.000000e+00  0.000000e+00  0.000000e+00  0.000000e+00  1.800000e+00  0.000000e+00  1.800000e+00  0.000000e+00  0.000000e+00  0.000000e+00  0.000000e+00  8.162005e-01  0.000000e+00  8.418332e-06  2.253312e-10  9.139875e-07  3.652692e-07 -6.953307e-18  8.162005e-01  4.000000e+01 
 0.000000e+00  1.800000e+00  0.000000e+00  0.000000e+00  1.800000e+00  0.000000e+00  1.800000e+00  0.000000e+00  0.000000e+00  0.000000e+00  0.000000e+00  8.274397e-01  0.000000e+00  8.433560e-06  2.253345e-10  9.139875e-07  3.652692e-07  1.356518e-17  8.274397e-01  4.100000e+01 
 0.000000e+00  0.000000e+00  1.800000e+00  0.000000e+00  1.800000e+00  0.000000e+00  1.800000e+00  0.000000e+00  0.000000e+00  0.000000e+00  0.000000e+00  8.381398e-01  0.000000e+00  8.445635e-06  2.253338e-10  9.139875e-07  3.652692e-07  2.762201e-18  8.381398e-01  4.200000e+01 
 0.000000e+00  1.800000e+00  1.800000e+00  0.000000e+00  1.800000e+00  0.000000e+00  1.800000e+00  0.000000e+00  0.000000e+00  0.000000e+00  0.000000e+00  8.483019e-01  0.000000e+00  8.455156e-06  2.253393e-10  9.139875e-07  3.652692e-07 -3.023511e-19  8.483019e-01  4.300000e+01 
 0.000000e+00  0.000000e+00  0.000000e+00  1.800000e+00  1.800000e+00  0.000000e+00  1.800000e+00  0.000000e+00  0.000000e+00  0.000000e+00  0.000000e+00  8.590018e-01  0.000000e+00  8.463367e-06  2.253381e-10  9.139875e-07  3.652692e-07  1.612155e-18  8.590018e-01  4.400000e+01 
 0.000000e+00  1.800000e+00  0.000000e+00  1.800000e+00  1.800000e+00  0.000000e+00  1.800000e+00  0.000000e+00  0.000000e+00  0.000000e+00  0.000000e+00  8.691637e-01  0.000000e+00  8.469668e-06  2.253353e-10  9.139875e-07  3.652692e-07  1.571048e-18  8.691637e-01  4.500000e+01 
 0.000000e+00  0.000000e+00  1.800000e+00  1.800000e+00  1.800000e+00  0.000000e+00  1.800000e+00  0.000000e+00  0.000000e+00  0.000000e+00  0.000000e+00  8.793256e-01  0.000000e+00  8.474711e-06  2.253353e-10  9.139875e-07  3.652692e-07  1.424545e-17  8.793256e-01  4.600000e+01 
 0.000000e+00  1.800000e+00  1.800000e+00  1.800000e+00  1.800000e+00  0.000000e+00  1.800000e+00  0.000000e+00  0.000000e+00  0.000000e+00  0.000000e+00  8.894875e-01  0.000000e+00  8.478676e-06  2.253326e-10  9.139875e-07  3.652692e-07 -2.025736e-17  8.894875e-01  4.700000e+01 
 0.000000e+00  0.000000e+00  0.000000e+00  0.000000e+00  0.000000e+00  1.800000e+00  1.800000e+00  0.000000e+00  0.000000e+00  0.000000e+00  0.000000e+00  8.991078e-01  0.000000e+00  8.481574e-06  2.308525e-10  9.139875e-07  3.652692e-07  2.166684e-19  8.991078e-01  4.800000e+01 
 0.000000e+00  1.800000e+00  0.000000e+00  0.000000e+00  0.000000e+00  1.800000e+00  1.800000e+00  0.000000e+00  0.000000e+00  0.000000e+00  0.000000e+00  9.092695e-01  0.000000e+00  8.483890e-06  2.308497e-10  9.139875e-07  3.652692e-07  5.948818e-19  9.092695e-01  4.900000e+01 
 0.000000e+00  0.000000e+00  1.800000e+00  0.000000e+00  0.000000e+00  1.800000e+00  1.800000e+00  0.000000e+00  0.000000e+00  0.000000e+00  0.000000e+00  9.188922e-01  0.000000e+00  8.485485e-06  2.308468e-10  9.139875e-07  3.652692e-07 -9.854514e-18  9.188922e-01  5.000000e+01 
 0.000000e+00  1.800000e+00  1.800000e+00  0.000000e+00  0.000000e+00  1.800000e+00  1.800000e+00  0.000000e+00  0.000000e+00  0.000000e+00  0.000000e+00  9.279760e-01  0.000000e+00  8.486537e-06  2.308480e-10  9.139875e-07  3.652692e-07 -1.842898e-17  9.279760e-01  5.100000e+01 
 0.000000e+00  0.000000e+00  0.000000e+00  1.800000e+00  0.000000e+00  1.800000e+00  1.800000e+00  0.000000e+00  0.000000e+00  0.000000e+00  0.000000e+00  9.375986e-01  0.000000e+00  8.487261e-06  2.308488e-10  9.139875e-07  3.652692e-07 -1.123622e-17  9.375986e-01  5.200000e+01 
 0.000000e+00  1.800000e+00  0.000000e+00  1.800000e+00  0.000000e+00  1.800000e+00  1.800000e+00  0.000000e+00  0.000000e+00  0.000000e+00  0.000000e+00  9.466824e-01  0.000000e+00  8.487639e-06  2.308474e-10  9.139875e-07  3.652692e-07  8.259551e-18  9.466824e-01  5.300000e+01 
 0.000000e+00  0.000000e+00  1.800000e+00  1.800000e+00  0.000000e+00  1.800000e+00  1.800000e+00  0.000000e+00  0.000000e+00  0.000000e+00  0.000000e+00  9.557661e-01  0.000000e+00  8.487771e-06  2.308477e-10  9.139875e-07  3.652692e-07 -6.293230e-18  9.557661e-01  5.400000e+01 
 0.000000e+00  1.800000e+00  1.800000e+00  1.800000e+00  0.000000e+00  1.800000e+00  1.800000e+00  0.000000e+00  0.000000e+00  0.000000e+00  0.000000e+00  9.648499e-01  0.000000e+00  8.487706e-06  2.308473e-10  9.139875e-07  3.652692e-07  1.885515e-17  9.648499e-01  5.500000e+01 
 0.000000e+00  0.000000e+00  0.000000e+00  0.000000e+00  1.800000e+00  1.800000e+00  1.800000e+00  0.000000e+00  0.000000e+00  0.000000e+00  0.000000e+00  9.739333e-01  0.000000e+00  8.487479e-06  2.308471e-10  9.139875e-07  3.652692e-07 -1.736436e-17  9.739333e-01  5.600000e+01 
 0.000000e+00  1.800000e+00  0.000000e+00  0.000000e+00  1.800000e+00  1.800000e+00  1.800000e+00  0.000000e+00  0.000000e+00  0.000000e+00  0.000000e+00  9.830170e-01  0.000000e+00  8.487121e-06  2.308460e-10  9.139875e-07  3.652692e-07  1.042985e-17  9.830170e-01  5.700000e+01 
 0.000000e+00  0.000000e+00  1.800000e+00  0.000000e+00  1.800000e+00  1.800000e+00  1.800000e+00  0.000000e+00  0.000000e+00  0.000000e+00  0.000000e+00  9.915639e-01  0.000000e+00  8.486692e-06  2.308480e-10  9.139875e-07  3.652692e-07  1.756443e-17  9.915639e-01  5.800000e+01 
 0.000000e+00  1.800000e+00  1.800000e+00  0.000000e+00  1.800000e+00  1.800000e+00  1.800000e+00  0.000000e+00  0.000000e+00  0.000000e+00  0.000000e+00  1.000111e+00  0.000000e+00  8.486188e-06  2.308521e-10  9.139875e-07  3.652692e-07  1.354510e-17  1.000111e+00  5.900000e+01 
 0.000000e+00  0.000000e+00  0.000000e+00  1.800000e+00  1.800000e+00  1.800000e+00  1.800000e+00  0.000000e+00  0.000000e+00  0.000000e+00  0.000000e+00  1.008658e+00  0.000000e+00  8.485622e-06  2.308466e-10  9.139875e-07  3.652692e-07  6.418154e-18  1.008658e+00  6.000000e+01 
 0.000000e+00  1.800000e+00  0.000000e+00  1.800000e+00  1.800000e+00  1.800000e+00  1.800000e+00  0.000000e+00  0.000000e+00  0.000000e+00  0.000000e+00  1.017205e+00  0.000000e+00  8.485010e-06  2.308458e-10  9.139875e-07  3.652692e-07  1.006255e-17  1.017205e+00  6.100000e+01 
 0.000000e+00  0.000000e+00  1.800000e+00  1.800000e+00  1.800000e+00  1.800000e+00  1.800000e+00  0.000000e+00  0.000000e+00  0.000000e+00  0.000000e+00  1.025752e+00  0.000000e+00  8.484357e-06  2.308460e-10  9.139875e-07  3.652692e-07 -8.387810e-18  1.025752e+00  6.200000e+01 
 0.000000e+00  1.800000e+00  1.800000e+00  1.800000e+00  1.800000e+00  1.800000e+00  1.800000e+00  0.000000e+00  0.000000e+00  0.000000e+00  0.000000e+00  1.034299e+00  0.000000e+00  8.483671e-06  2.308451e-10  9.139875e-07  3.652692e-07  2.765391e-18  1.034299e+00  6.300000e+01 
 0.000000e+00  0.000000e+00  0.000000e+00  0.000000e+00  0.000000e+00  0.000000e+00  0.000000e+00  1.800000e+00  0.000000e+00  0.000000e+00  0.000000e+00  1.042330e+00  0.000000e+00  8.483123e-06  2.304624e-10  9.139875e-07  3.652692e-07  1.524817e-17  1.042330e+00  6.400000e+01 
 0.000000e+00  1.800000e+00  0.000000e+00  0.000000e+00  0.000000e+00  0.000000e+00  0.000000e+00  1.800000e+00  0.000000e+00  0.000000e+00  0.000000e+00  1.047374e+00  0.000000e+00  8.483983e-06  2.304635e-10  9.139875e-07  3.652692e-07  5.493022e-18  1.047374e+00  6.500000e+01 
 0.000000e+00  0.000000e+00  1.800000e+00  0.000000e+00  0.000000e+00  0.000000e+00  0.000000e+00  1.800000e+00  0.000000e+00  0.000000e+00  0.000000e+00  1.052993e+00  0.000000e+00  8.484698e-06  2.304543e-10  9.139875e-07  3.652692e-07 -8.803610e-18  1.052993e+00  6.600000e+01 
 0.000000e+00  1.800000e+00  1.800000e+00  0.000000e+00  0.000000e+00  0.000000e+00  0.000000e+00  1.800000e+00  0.000000e+00  0.000000e+00  0.000000e+00  1.059361e+00  0.000000e+00  8.484450e-06  2.304613e-10  9.139875e-07  3.652692e-07 -1.014636e-17  1.059361e+00  6.700000e+01 
 0.000000e+00  0.000000e+00  0.000000e+00  1.800000e+00  0.000000e+00  0.000000e+00  0.000000e+00  1.800000e+00  0.000000e+00  0.000000e+00  0.000000e+00  1.066338e+00  0.000000e+00  8.485246e-06  2.304515e-10  9.139875e-07  3.652692e-07  2.599306e-18  1.066338e+00  6.800000e+01 
 0.000000e+00  1.800000e+00  0.000000e+00  1.800000e+00  0.000000e+00  0.000000e+00  0.000000e+00  1.800000e+00  0.000000e+00  0.000000e+00  0.000000e+00  1.074499e+00  0.000000e+00  8.483361e-06  2.304613e-10  9.139875e-07  3.652692e-07 -9.093812e-18  1.074499e+00  6.900000e+01 
