 v-sweep       d0            d1            d2            d3            d4            d5            d6            d7            d8            d9            load          v-sweep       vmeas#branch  vmeas1#branch vmeas2#branch vmeas3#branch vmeas5#branch vout          ndata        
 0.000000e+00  0.000000e+00  0.000000e+00  0.000000e+00  0.000000e+00  0.000000e+00  0.000000e+00  0.000000e+00  0.000000e+00  0.000000e+00  0.000000e+00  7.404144e-04  0.000000e+00  9.066901e-06  2.657344e-10  1.072477e-06  4.293997e-07 -2.170522e-21  7.404144e-04  0.000000e+00 
 0.000000e+00  1.800000e+00  0.000000e+00  0.000000e+00  0.000000e+00  0.000000e+00  0.000000e+00  0.000000e+00  0.000000e+00  0.000000e+00  0.000000e+00  5.252131e-02  0.000000e+00  9.143131e-06  2.657340e-10  1.072477e-06  4.293997e-07  3.017555e-21  5.252131e-02  1.000000e+00 
 0.000000e+00  0.000000e+00  1.800000e+00  0.000000e+00  0.000000e+00  0.000000e+00  0.000000e+00  0.000000e+00  0.000000e+00  0.000000e+00  0.000000e+00  9.869624e-02  0.000000e+00  9.165931e-06  2.657346e-10  1.072477e-06  4.293997e-07 -3.303428e-20  9.869624e-02  2.000000e+00 
 0.000000e+00  1.800000e+00  1.800000e+00  0.000000e+00  0.000000e+00  0.000000e+00  0.000000e+00  0.000000e+00  0.000000e+00  0.000000e+00  0.000000e+00  1.394999e-01  0.000000e+00  9.172809e-06  2.657357e-10  1.072477e-06  4.293997e-07  2.218168e-19  1.394999e-01  3.000000e+00 
 0.000000e+00  0.000000e+00  0.000000e+00  1.800000e+00  0.000000e+00  0.000000e+00  0.000000e+00  0.000000e+00  0.000000e+00  0.000000e+00  0.000000e+00  1.765493e-01  0.000000e+00  9.175999e-06  2.657339e-10  1.072477e-06  4.293997e-07  2.199837e-19  1.765493e-01  4.000000e+00 
 0.000000e+00  1.800000e+00  0.000000e+00  1.800000e+00  0.000000e+00  0.000000e+00  0.000000e+00  0.000000e+00  0.000000e+00  0.000000e+00  0.000000e+00  2.109172e-01  0.000000e+00  9.178115e-06  2.657347e-10  1.072477e-06  4.293997e-07  3.207476e-19  2.109172e-01  5.000000e+00 
 0.000000e+00  0.000000e+00  1.800000e+00  1.800000e+00  0.000000e+00  0.000000e+00  0.000000e+00  0.000000e+00  0.000000e+00  0.000000e+00  0.000000e+00  2.426039e-01  0.000000e+00  9.179945e-06  2.657360e-10  1.072477e-06  4.293997e-07  6.796116e-21  2.426039e-01  6.000000e+00 
 0.000000e+00  1.800000e+00  1.800000e+00  1.800000e+00  0.000000e+00  0.000000e+00  0.000000e+00  0.000000e+00  0.000000e+00  0.000000e+00  0.000000e+00  2.721463e-01  0.000000e+00  9.181905e-06  2.657366e-10  1.072477e-06  4.293997e-07  5.615564e-20  2.721463e-01  7.000000e+00 
 0.000000e+00  0.000000e+00  0.000000e+00  0.000000e+00  1.800000e+00  0.000000e+00  0.000000e+00  0.000000e+00  0.000000e+00  0.000000e+00  0.000000e+00  3.000806e-01  0.000000e+00  9.184292e-06  2.657352e-10  1.072477e-06  4.293997e-07 -1.535909e-20  3.000806e-01  8.000000e+00 
 0.000000e+00  1.800000e+00  0.000000e+00  0.000000e+00  1.800000e+00  0.000000e+00  0.000000e+00  0.000000e+00  0.000000e+00  0.000000e+00  0.000000e+00  3.264063e-01  0.000000e+00  9.187372e-06  2.657357e-10  1.072477e-06  4.293997e-07 -5.874240e-19  3.264063e-01  9.000000e+00 
 0.000000e+00  0.000000e+00  1.800000e+00  0.000000e+00  1.800000e+00  0.000000e+00  0.000000e+00  0.000000e+00  0.000000e+00  0.000000e+00  0.000000e+00  3.511243e-01  0.000000e+00  9.191392e-06  2.657356e-10  1.072477e-06  4.293997e-07  2.792628e-19  3.511243e-01  1.000000e+01 
 0.000000e+00  1.800000e+00  1.800000e+00  0.000000e+00  1.800000e+00  0.000000e+00  0.000000e+00  0.000000e+00  0.000000e+00  0.000000e+00  0.000000e+00  3.747691e-01  0.000000e+00  9.196724e-06  2.657364e-10  1.072477e-06  4.293997e-07  2.252115e-19  3.747691e-01  1.100000e+01 
 0.000000e+00  0.000000e+00  0.000000e+00  1.800000e+00  1.800000e+00  0.000000e+00  0.000000e+00  0.000000e+00  0.000000e+00  0.000000e+00  0.000000e+00  3.973414e-01  0.000000e+00  9.203710e-06  2.657369e-10  1.072477e-06  4.293997e-07 -5.744604e-20  3.973414e-01  1.200000e+01 
 0.000000e+00  1.800000e+00  0.000000e+00  1.800000e+00  1.800000e+00  0.000000e+00  0.000000e+00  0.000000e+00  0.000000e+00  0.000000e+00  0.000000e+00  4.188417e-01  0.000000e+00  9.212698e-06  2.657377e-10  1.072477e-06  4.293997e-07 -1.636759e-19  4.188417e-01  1.300000e+01 
 0.000000e+00  0.000000e+00  1.800000e+00  1.800000e+00  1.800000e+00  0.000000e+00  0.000000e+00  0.000000e+00  0.000000e+00  0.000000e+00  0.000000e+00  4.398063e-01  0.000000e+00  9.224331e-06  2.657368e-10  1.072477e-06  4.293997e-07 -4.120220e-19  4.398063e-01  1.400000e+01 
 0.000000e+00  1.800000e+00  1.800000e+00  1.800000e+00  1.800000e+00  0.000000e+00  0.000000e+00  0.000000e+00  0.000000e+00  0.000000e+00  0.000000e+00  4.596987e-01  0.000000e+00  9.238696e-06  2.657372e-10  1.072477e-06  4.293997e-07 -8.902449e-20  4.596987e-01  1.500000e+01 
 0.000000e+00  0.000000e+00  0.000000e+00  0.000000e+00  0.000000e+00  1.800000e+00  0.000000e+00  0.000000e+00  0.000000e+00  0.000000e+00  0.000000e+00  4.790528e-01  0.000000e+00  9.256454e-06  2.712707e-10  1.072477e-06  4.293997e-07 -1.864399e-19  4.790528e-01  1.600000e+01 
 0.000000e+00  1.800000e+00  0.000000e+00  0.000000e+00  0.000000e+00  1.800000e+00  0.000000e+00  0.000000e+00  0.000000e+00  0.000000e+00  0.000000e+00  4.973365e-01  0.000000e+00  9.277346e-06  2.712681e-10  1.072477e-06  4.293997e-07 -2.401868e-19  4.973365e-01  1.700000e+01 
 0.000000e+00  0.000000e+00  1.800000e+00  0.000000e+00  0.000000e+00  1.800000e+00  0.000000e+00  0.000000e+00  0.000000e+00  0.000000e+00  0.000000e+00  5.156202e-01  0.000000e+00  9.302779e-06  2.712715e-10  1.072477e-06  4.293997e-07  7.866157e-19  5.156202e-01  1.800000e+01 
 0.000000e+00  1.800000e+00  1.800000e+00  0.000000e+00  0.000000e+00  1.800000e+00  0.000000e+00  0.000000e+00  0.000000e+00  0.000000e+00  0.000000e+00  5.328322e-01  0.000000e+00  9.331274e-06  2.712720e-10  1.072477e-06  4.293997e-07 -1.165200e-19  5.328322e-01  1.900000e+01 
 0.000000e+00  0.000000e+00  0.000000e+00  1.800000e+00  0.000000e+00  1.800000e+00  0.000000e+00  0.000000e+00  0.000000e+00  0.000000e+00  0.000000e+00  5.500444e-01  0.000000e+00  9.364430e-06  2.712723e-10  1.072477e-06  4.293997e-07 -6.461273e-20  5.500444e-01  2.000000e+01 
 0.000000e+00  1.800000e+00  0.000000e+00  1.800000e+00  0.000000e+00  1.800000e+00  0.000000e+00  0.000000e+00  0.000000e+00  0.000000e+00  0.000000e+00  5.661849e-01  0.000000e+00  9.399805e-06  2.712726e-10  1.072477e-06  4.293997e-07  2.403456e-20  5.661849e-01  2.100000e+01 
 0.000000e+00  0.000000e+00  1.800000e+00  1.800000e+00  0.000000e+00  1.800000e+00  0.000000e+00  0.000000e+00  0.000000e+00  0.000000e+00  0.000000e+00  5.823259e-01  0.000000e+00  9.439161e-06  2.712721e-10  1.072477e-06  4.293997e-07 -4.904188e-20  5.823259e-01  2.200000e+01 
 0.000000e+00  1.800000e+00  1.800000e+00  1.800000e+00  0.000000e+00  1.800000e+00  0.000000e+00  0.000000e+00  0.000000e+00  0.000000e+00  0.000000e+00  5.979307e-01  0.000000e+00  9.480640e-06  2.712709e-10  1.072477e-06  4.293997e-07  7.174369e-19  5.979307e-01  2.300000e+01 
 0.000000e+00  0.000000e+00  0.000000e+00  0.000000e+00  1.800000e+00  1.800000e+00  0.000000e+00  0.000000e+00  0.000000e+00  0.000000e+00  0.000000e+00  6.135355e-01  0.000000e+00  9.524937e-06  2.712711e-10  1.072477e-06  4.293997e-07 -4.622087e-19  6.135355e-01  2.400000e+01 
 0.000000e+00  1.800000e+00  0.000000e+00  0.000000e+00  1.800000e+00  1.800000e+00  0.000000e+00  0.000000e+00  0.000000e+00  0.000000e+00  0.000000e+00  6.280688e-01  0.000000e+00  9.568042e-06  2.712729e-10  1.072477e-06  4.293997e-07 -2.265032e-18  6.280688e-01  2.500000e+01 
 0.000000e+00  0.000000e+00  1.800000e+00  0.000000e+00  1.800000e+00  1.800000e+00  0.000000e+00  0.000000e+00  0.000000e+00  0.000000e+00  0.000000e+00  6.426024e-01  0.000000e+00  9.612134e-06  2.712692e-10  1.072477e-06  4.293997e-07 -6.892598e-19  6.426024e-01  2.600000e+01 
 0.000000e+00  1.800000e+00  1.800000e+00  0.000000e+00  1.800000e+00  1.800000e+00  0.000000e+00  0.000000e+00  0.000000e+00  0.000000e+00  0.000000e+00  6.565995e-01  0.000000e+00  9.654659e-06  2.712734e-10  1.072477e-06  4.293997e-07 -1.247203e-18  6.565995e-01  2.700000e+01 
 0.000000e+00  0.000000e+00  0.000000e+00  1.800000e+00  1.800000e+00  1.800000e+00  0.000000e+00  0.000000e+00  0.000000e+00  0.000000e+00  0.000000e+00  6.705965e-01  0.000000e+00  9.696305e-06  2.712720e-10  1.072477e-06  4.293997e-07  3.010289e-18  6.705965e-01  2.800000e+01 
 0.000000e+00  1.800000e+00  0.000000e+00  1.800000e+00  1.800000e+00  1.800000e+00  0.000000e+00  0.000000e+00  0.000000e+00  0.000000e+00  0.000000e+00  6.840581e-01  0.000000e+00  9.734676e-06  2.712732e-10  1.072477e-06  4.293997e-07  2.266740e-19  6.840581e-01  2.900000e+01 
 0.000000e+00  0.000000e+00  1.800000e+00  1.800000e+00  1.800000e+00  1.800000e+00  0.000000e+00  0.000000e+00  0.000000e+00  0.000000e+00  0.000000e+00  6.975195e-01  0.000000e+00  9.770612e-06  2.712728e-10  1.072477e-06  4.293997e-07 -9.433168e-19  6.975195e-01  3.000000e+01 
 0.000000e+00  1.800000e+00  1.800000e+00  1.800000e+00  1.800000e+00  1.800000e+00  0.000000e+00  0.000000e+00  0.000000e+00  0.000000e+00  0.000000e+00  7.104453e-01  0.000000e+00  9.802221e-06  2.712734e-10  1.072477e-06  4.293997e-07  2.099437e-18  7.104453e-01  3.100000e+01 
 0.000000e+00  0.000000e+00  0.000000e+00  0.000000e+00  0.000000e+00  0.000000e+00  1.800000e+00  0.000000e+00  0.000000e+00  0.000000e+00  0.000000e+00  7.233679e-01  0.000000e+00  9.830541e-06  2.657359e-10  1.072477e-06  4.293997e-07 -2.114843e-18  7.233679e-01  3.200000e+01 
 0.000000e+00  1.800000e+00  0.000000e+00  0.000000e+00  0.000000e+00  0.000000e+00  1.800000e+00  0.000000e+00  0.000000e+00  0.000000e+00  0.000000e+00  7.357565e-01  0.000000e+00  9.854442e-06  2.657359e-10  1.072477e-06  4.293997e-07  1.833429e-19  7.357565e-01  3.300000e+01 
 0.000000e+00  0.000000e+00  1.800000e+00  0.000000e+00  0.000000e+00  0.000000e+00  1.800000e+00  0.000000e+00  0.000000e+00  0.000000e+00  0.000000e+00  7.481450e-01  0.000000e+00  9.875115e-06  2.657379e-10  1.072477e-06  4.293997e-07  1.596670e-18  7.481450e-01  3.400000e+01 
 0.000000e+00  1.800000e+00  1.800000e+00  0.000000e+00  0.000000e+00  0.000000e+00  1.800000e+00  0.000000e+00  0.000000e+00  0.000000e+00  0.000000e+00  7.605333e-01  0.000000e+00  9.892668e-06  2.657388e-10  1.072477e-06  4.293997e-07  3.040451e-19  7.605333e-01  3.500000e+01 
 0.000000e+00  0.000000e+00  0.000000e+00  1.800000e+00  0.000000e+00  0.000000e+00  1.800000e+00  0.000000e+00  0.000000e+00  0.000000e+00  0.000000e+00  7.723858e-01  0.000000e+00  9.906745e-06  2.657367e-10  1.072477e-06  4.293997e-07  1.779285e-18  7.723858e-01  3.600000e+01 
 0.000000e+00  1.800000e+00  0.000000e+00  1.800000e+00  0.000000e+00  0.000000e+00  1.800000e+00  0.000000e+00  0.000000e+00  0.000000e+00  0.000000e+00  7.837016e-01  0.000000e+00  9.917947e-06  2.657368e-10  1.072477e-06  4.293997e-07 -1.290071e-18  7.837016e-01  3.700000e+01 
 0.000000e+00  0.000000e+00  1.800000e+00  1.800000e+00  0.000000e+00  0.000000e+00  1.800000e+00  0.000000e+00  0.000000e+00  0.000000e+00  0.000000e+00  7.955540e-01  0.000000e+00  9.927608e-06  2.657381e-10  1.072477e-06  4.293997e-07 -1.378202e-18  7.955540e-01  3.800000e+01 
 0.000000e+00  1.800000e+00  1.800000e+00  1.800000e+00  0.000000e+00  0.000000e+00  1.800000e+00  0.000000e+00  0.000000e+00  0.000000e+00  0.000000e+00  8.068696e-01  0.000000e+00  9.935099e-06  2.657339e-10  1.072477e-06  4.293997e-07  3.735415e-19  8.068696e-01  3.900000e+01 
 0.000000e+00  0.000000e+00  0.000000e+00  0.000000e+00  1.800000e+00  0.000000e+00  1.800000e+00  0.000000e+00  0.000000e+00  0.000000e+00  0.000000e+00  8.176482e-01  0.000000e+00  9.940870e-06  2.657365e-10  1.072477e-06  4.293997e-07  1.150165e-18  8.176482e-01  4.000000e+01 
 0.000000e+00  1.800000e+00  0.000000e+00  0.000000e+00  1.800000e+00  0.000000e+00  1.800000e+00  0.000000e+00  0.000000e+00  0.000000e+00  0.000000e+00  8.289637e-01  0.000000e+00  9.945701e-06  2.657384e-10  1.072477e-06  4.293997e-07  8.417655e-19  8.289637e-01  4.100000e+01 
 0.000000e+00  0.000000e+00  1.800000e+00  0.000000e+00  1.800000e+00  0.000000e+00  1.800000e+00  0.000000e+00  0.000000e+00  0.000000e+00  0.000000e+00  8.397425e-01  0.000000e+00  9.949293e-06  2.657355e-10  1.072477e-06  4.293997e-07  1.400503e-18  8.397425e-01  4.200000e+01 
 0.000000e+00  1.800000e+00  1.800000e+00  0.000000e+00  1.800000e+00  0.000000e+00  1.800000e+00  0.000000e+00  0.000000e+00  0.000000e+00  0.000000e+00  8.499859e-01  0.000000e+00  9.951937e-06  2.657392e-10  1.072477e-06  4.293997e-07  1.304947e-18  8.499859e-01  4.300000e+01 
 0.000000e+00  0.000000e+00  0.000000e+00  1.800000e+00  1.800000e+00  0.000000e+00  1.800000e+00  0.000000e+00  0.000000e+00  0.000000e+00  0.000000e+00  8.607646e-01  0.000000e+00  9.954012e-06  2.657406e-10  1.072477e-06  4.293997e-07  1.079610e-18  8.607646e-01  4.400000e+01 
 0.000000e+00  1.800000e+00  0.000000e+00  1.800000e+00  1.800000e+00  0.000000e+00  1.800000e+00  0.000000e+00  0.000000e+00  0.000000e+00  0.000000e+00  8.710078e-01  0.000000e+00  9.955424e-06  2.657392e-10  1.072477e-06  4.293997e-07 -2.993586e-18  8.710078e-01  4.500000e+01 
 0.000000e+00  0.000000e+00  1.800000e+00  1.800000e+00  1.800000e+00  0.000000e+00  1.800000e+00  0.000000e+00  0.000000e+00  0.000000e+00  0.000000e+00  8.812510e-01  0.000000e+00  9.956365e-06  2.657392e-10  1.072477e-06  4.293997e-07 -1.414770e-18  8.812510e-01  4.600000e+01 
 0.000000e+00  1.800000e+00  1.800000e+00  1.800000e+00  1.800000e+00  0.000000e+00  1.800000e+00  0.000000e+00  0.000000e+00  0.000000e+00  0.000000e+00  8.914943e-01  0.000000e+00  9.956908e-06  2.657373e-10  1.072477e-06  4.293997e-07 -3.424925e-19  8.914943e-01  4.700000e+01 
 0.000000e+00  0.000000e+00  0.000000e+00  0.000000e+00  0.000000e+00  1.800000e+00  1.800000e+00  0.000000e+00  0.000000e+00  0.000000e+00  0.000000e+00  9.011982e-01  0.000000e+00  9.957111e-06  2.712710e-10  1.072477e-06  4.293997e-07  5.863506e-18  9.011982e-01  4.800000e+01 
 0.000000e+00  1.800000e+00  0.000000e+00  0.000000e+00  0.000000e+00  1.800000e+00  1.800000e+00  0.000000e+00  0.000000e+00  0.000000e+00  0.000000e+00  9.114413e-01  0.000000e+00  9.957072e-06  2.712704e-10  1.072477e-06  4.293997e-07 -1.104915e-18  9.114413e-01  4.900000e+01 
 0.000000e+00  0.000000e+00  1.800000e+00  0.000000e+00  0.000000e+00  1.800000e+00  1.800000e+00  0.000000e+00  0.000000e+00  0.000000e+00  0.000000e+00  9.211478e-01  0.000000e+00  9.956825e-06  2.712706e-10  1.072477e-06  4.293997e-07  2.071697e-18  9.211478e-01  5.000000e+01 
 0.000000e+00  1.800000e+00  1.800000e+00  0.000000e+00  0.000000e+00  1.800000e+00  1.800000e+00  0.000000e+00  0.000000e+00  0.000000e+00  0.000000e+00  9.303178e-01  0.000000e+00  9.956443e-06  2.712717e-10  1.072477e-06  4.293997e-07  4.506215e-19  9.303178e-01  5.100000e+01 
 0.000000e+00  0.000000e+00  0.000000e+00  1.800000e+00  0.000000e+00  1.800000e+00  1.800000e+00  0.000000e+00  0.000000e+00  0.000000e+00  0.000000e+00  9.400242e-01  0.000000e+00  9.955904e-06  2.712699e-10  1.072477e-06  4.293997e-07  2.154111e-18  9.400242e-01  5.200000e+01 
 0.000000e+00  1.800000e+00  0.000000e+00  1.800000e+00  0.000000e+00  1.800000e+00  1.800000e+00  0.000000e+00  0.000000e+00  0.000000e+00  0.000000e+00  9.491941e-01  0.000000e+00  9.955299e-06  2.712710e-10  1.072477e-06  4.293997e-07 -4.706115e-18  9.491941e-01  5.300000e+01 
 0.000000e+00  0.000000e+00  1.800000e+00  1.800000e+00  0.000000e+00  1.800000e+00  1.800000e+00  0.000000e+00  0.000000e+00  0.000000e+00  0.000000e+00  9.583641e-01  0.000000e+00  9.954616e-06  2.712717e-10  1.072477e-06  4.293997e-07 -1.036424e-18  9.583641e-01  5.400000e+01 
 0.000000e+00  1.800000e+00  1.800000e+00  1.800000e+00  0.000000e+00  1.800000e+00  1.800000e+00  0.000000e+00  0.000000e+00  0.000000e+00  0.000000e+00  9.675340e-01  0.000000e+00  9.953872e-06  2.712731e-10  1.072477e-06  4.293997e-07  2.456726e-18  9.675340e-01  5.500000e+01 
 0.000000e+00  0.000000e+00  0.000000e+00  0.000000e+00  1.800000e+00  1.800000e+00  1.800000e+00  0.000000e+00  0.000000e+00  0.000000e+00  0.000000e+00  9.767036e-01  0.000000e+00  9.953071e-06  2.712708e-10  1.072477e-06  4.293997e-07  3.645550e-18  9.767036e-01  5.600000e+01 
 0.000000e+00  1.800000e+00  0.000000e+00  0.000000e+00  1.800000e+00  1.800000e+00  1.800000e+00  0.000000e+00  0.000000e+00  0.000000e+00  0.000000e+00  9.858735e-01  0.000000e+00  9.952230e-06  2.712712e-10  1.072477e-06  4.293997e-07 -1.337584e-18  9.858735e-01  5.700000e+01 
 0.000000e+00  0.000000e+00  1.800000e+00  0.000000e+00  1.800000e+00  1.800000e+00  1.800000e+00  0.000000e+00  0.000000e+00  0.000000e+00  0.000000e+00  9.945090e-01  0.000000e+00  9.951409e-06  2.712710e-10  1.072477e-06  4.293997e-07  1.639670e-19  9.945090e-01  5.800000e+01 
 0.000000e+00  1.800000e+00  1.800000e+00  0.000000e+00  1.800000e+00  1.800000e+00  1.800000e+00  0.000000e+00  0.000000e+00  0.000000e+00  0.000000e+00  1.003145e+00  0.000000e+00  9.950568e-06  2.712757e-10  1.072477e-06  4.293997e-07  2.999595e-18  1.003145e+00  5.900000e+01 
 0.000000e+00  0.000000e+00  0.000000e+00  1.800000e+00  1.800000e+00  1.800000e+00  1.800000e+00  0.000000e+00  0.000000e+00  0.000000e+00  0.000000e+00  1.011780e+00  0.000000e+00  9.949702e-06  2.712717e-10  1.072477e-06  4.293997e-07  3.374195e-18  1.011780e+00  6.000000e+01 
 0.000000e+00  1.800000e+00  0.000000e+00  1.800000e+00  1.800000e+00  1.800000e+00  1.800000e+00  0.000000e+00  0.000000e+00  0.000000e+00  0.000000e+00  1.020415e+00  0.000000e+00  9.948821e-06  2.712720e-10  1.072477e-06  4.293997e-07 -5.273984e-18  1.020415e+00  6.100000e+01 
 0.000000e+00  0.000000e+00  1.800000e+00  1.800000e+00  1.800000e+00  1.800000e+00  1.800000e+00  0.000000e+00  0.000000e+00  0.000000e+00  0.000000e+00  1.029051e+00  0.000000e+00  9.947929e-06  2.712755e-10  1.072477e-06  4.293997e-07  3.923854e-18  1.029051e+00  6.200000e+01 
 0.000000e+00  1.800000e+00  1.800000e+00  1.800000e+00  1.800000e+00  1.800000e+00  1.800000e+00  0.000000e+00  0.000000e+00  0.000000e+00  0.000000e+00  1.037687e+00  0.000000e+00  9.947029e-06  2.712732e-10  1.072477e-06  4.293997e-07  1.435588e-18  1.037687e+00  6.300000e+01 
 0.000000e+00  0.000000e+00  0.000000e+00  0.000000e+00  0.000000e+00  0.000000e+00  0.000000e+00  1.800000e+00  0.000000e+00  0.000000e+00  0.000000e+00  1.045803e+00  0.000000e+00  9.946301e-06  2.702172e-10  1.072477e-06  4.293997e-07  2.318991e-18  1.045803e+00  6.400000e+01 
 0.000000e+00  1.800000e+00  0.000000e+00  0.000000e+00  0.000000e+00  0.000000e+00  0.000000e+00  1.800000e+00  0.000000e+00  0.000000e+00  0.000000e+00  1.051319e+00  0.000000e+00  9.946651e-06  2.702174e-10  1.072477e-06  4.293997e-07 -1.291686e-18  1.051319e+00  6.500000e+01 
 0.000000e+00  0.000000e+00  1.800000e+00  0.000000e+00  0.000000e+00  0.000000e+00  0.000000e+00  1.800000e+00  0.000000e+00  0.000000e+00  0.000000e+00  1.057366e+00  0.000000e+00  9.946873e-06  2.702172e-10  1.072477e-06  4.293997e-07 -6.606195e-19  1.057366e+00  6.600000e+01 
 0.000000e+00  1.800000e+00  1.800000e+00  0.000000e+00  0.000000e+00  0.000000e+00  0.000000e+00  1.800000e+00  0.000000e+00  0.000000e+00  0.000000e+00  1.064091e+00  0.000000e+00  9.946137e-06  2.702151e-10  1.072477e-06  4.293997e-07 -2.847619e-18  1.064091e+00  6.700000e+01 
 0.000000e+00  0.000000e+00  0.000000e+00  1.800000e+00  0.000000e+00  0.000000e+00  0.000000e+00  1.800000e+00  0.000000e+00  0.000000e+00  0.000000e+00  1.071291e+00  0.000000e+00  9.946606e-06  2.702146e-10  1.072477e-06  4.293997e-07  8.497858e-19  1.071291e+00  6.800000e+01 
 0.000000e+00  1.800000e+00  0.000000e+00  1.800000e+00  0.000000e+00  0.000000e+00  0.000000e+00  1.800000e+00  0.000000e+00  0.000000e+00  0.000000e+00  1.079460e+00  0.000000e+00  9.944532e-06  2.702149e-10  1.072477e-06  4.293997e-07  5.070816e-19  1.079460e+00  6.900000e+01 
