 v-sweep         @m.xm1.msky130_fd_pr__nfet_g5v0d10v5[gm] @m.xm1.msky130_fd_pr__nfet_g5v0d10v5[id] @m.xm1.msky130_fd_pr__nfet_g5v0d10v5[gds]
 0.00000000e+00  0.00000000e+00  0.00000000e+00  1.02646204e-11 
 1.00000000e-01  0.00000000e+00  0.00000000e+00  5.94212175e-11 
 2.00000000e-01  0.00000000e+00  0.00000000e+00  3.43984733e-10 
 3.00000000e-01  0.00000000e+00  0.00000000e+00  1.99128653e-09 
 4.00000000e-01  0.00000000e+00  0.00000000e+00  1.15269070e-08 
 5.00000000e-01  0.00000000e+00  0.00000000e+00  6.67117391e-08 
 6.00000000e-01  0.00000000e+00  0.00000000e+00  3.85593766e-07 
 7.00000000e-01  0.00000000e+00  0.00000000e+00  2.20587995e-06 
 8.00000000e-01  0.00000000e+00  0.00000000e+00  1.14920417e-05 
 9.00000000e-01  0.00000000e+00  0.00000000e+00  4.04372051e-05 
 1.00000000e+00  0.00000000e+00  0.00000000e+00  8.60339843e-05 
 1.10000000e+00  0.00000000e+00  0.00000000e+00  1.36234055e-04 
 1.20000000e+00  0.00000000e+00  0.00000000e+00  1.86339671e-04 
 1.30000000e+00  0.00000000e+00  0.00000000e+00  2.35281558e-04 
 1.40000000e+00  0.00000000e+00  0.00000000e+00  2.82833253e-04 
 1.50000000e+00  0.00000000e+00  0.00000000e+00  3.28955181e-04 
 1.60000000e+00  0.00000000e+00  0.00000000e+00  3.73657516e-04 
 1.70000000e+00  0.00000000e+00  0.00000000e+00  4.16967357e-04 
 1.80000000e+00  0.00000000e+00  0.00000000e+00  4.58918664e-04 
 1.90000000e+00  0.00000000e+00  0.00000000e+00  4.99548290e-04 
 2.00000000e+00  0.00000000e+00  0.00000000e+00  5.38894110e-04 
 2.10000000e+00  0.00000000e+00  0.00000000e+00  5.76994050e-04 
 2.20000000e+00  0.00000000e+00  0.00000000e+00  6.13885553e-04 
 2.30000000e+00  0.00000000e+00  0.00000000e+00  6.49605290e-04 
 2.40000000e+00  0.00000000e+00  0.00000000e+00  6.84188998e-04 
 2.50000000e+00  0.00000000e+00  0.00000000e+00  7.17671395e-04 
 2.60000000e+00  0.00000000e+00  0.00000000e+00  7.50086144e-04 
 2.70000000e+00  0.00000000e+00  0.00000000e+00  7.81465847e-04 
 2.80000000e+00  0.00000000e+00  0.00000000e+00  8.11842051e-04 
 2.90000000e+00  0.00000000e+00  0.00000000e+00  8.41245269e-04 
 3.00000000e+00  0.00000000e+00  0.00000000e+00  8.69705008e-04 
 3.10000000e+00  0.00000000e+00  0.00000000e+00  8.97249793e-04 
 3.20000000e+00  0.00000000e+00  0.00000000e+00  9.23907205e-04 
 3.30000000e+00  0.00000000e+00  0.00000000e+00  9.49703911e-04 
 3.40000000e+00  0.00000000e+00  0.00000000e+00  9.74665694e-04 
 3.50000000e+00  0.00000000e+00  0.00000000e+00  9.98817490e-04 
 3.60000000e+00  0.00000000e+00  0.00000000e+00  1.02218341e-03 
 3.70000000e+00  0.00000000e+00  0.00000000e+00  1.04478680e-03 
 3.80000000e+00  0.00000000e+00  0.00000000e+00  1.06665020e-03 
 3.90000000e+00  0.00000000e+00  0.00000000e+00  1.08779548e-03 
 4.00000000e+00  0.00000000e+00  0.00000000e+00  1.10824376e-03 
 4.10000000e+00  0.00000000e+00  0.00000000e+00  1.12801550e-03 
 4.20000000e+00  0.00000000e+00  0.00000000e+00  1.14713051e-03 
 4.30000000e+00  0.00000000e+00  0.00000000e+00  1.16560796e-03 
 4.40000000e+00  0.00000000e+00  0.00000000e+00  1.18346645e-03 
 4.50000000e+00  0.00000000e+00  0.00000000e+00  1.20072394e-03 
 4.60000000e+00  0.00000000e+00  0.00000000e+00  1.21739789e-03 
 4.70000000e+00  0.00000000e+00  0.00000000e+00  1.23350516e-03 
 4.80000000e+00  0.00000000e+00  0.00000000e+00  1.24906213e-03 
 4.90000000e+00  0.00000000e+00  0.00000000e+00  1.26408467e-03 
 5.00000000e+00  0.00000000e+00  0.00000000e+00  1.27858813e-03 
 5.10000000e+00  0.00000000e+00  0.00000000e+00  1.29258744e-03 
 5.20000000e+00  0.00000000e+00  0.00000000e+00  1.30609704e-03 
 5.30000000e+00  0.00000000e+00  0.00000000e+00  1.31913094e-03 
 5.40000000e+00  0.00000000e+00  0.00000000e+00  1.33170274e-03 
 5.50000000e+00  0.00000000e+00  0.00000000e+00  1.34382562e-03 
 0.00000000e+00  5.59555167e-12  3.18662372e-13  6.01112358e-13 
 1.00000000e-01  3.23923392e-11  1.84471837e-12  3.47980938e-12 
 2.00000000e-01  1.87519530e-10  1.06790196e-11  2.01446496e-11 
 3.00000000e-01  1.08562644e-09  6.18226085e-11  1.16625293e-10 
 4.00000000e-01  6.28764279e-09  3.57972702e-10  6.75451597e-10 
 5.00000000e-01  3.64998610e-08  2.07516469e-09  3.92074853e-09 
 6.00000000e-01  2.14545939e-07  1.21071411e-08  2.30491376e-08 
 7.00000000e-01  1.32721740e-06  7.27728871e-08  1.44582597e-07 
 8.00000000e-01  8.26080219e-06  4.57926055e-07  1.11436221e-06 
 9.00000000e-01  2.85353313e-05  2.22528448e-06  8.84434477e-06 
 1.00000000e+00  4.34473816e-05  5.94504439e-06  3.55517972e-05 
 1.10000000e+00  4.74643467e-05  1.05444794e-05  7.62019309e-05 
 1.20000000e+00  4.77485115e-05  1.53197540e-05  1.21195999e-04 
 1.30000000e+00  4.69862432e-05  2.00607988e-05  1.66917229e-04 
 1.40000000e+00  4.58875246e-05  2.47058620e-05  2.12198466e-04 
 1.50000000e+00  4.46676219e-05  2.92339574e-05  2.56607158e-04 
 1.60000000e+00  4.34070795e-05  3.36375803e-05  2.99963281e-04 
 1.70000000e+00  4.21415933e-05  3.79146743e-05  3.42190198e-04 
 1.80000000e+00  4.08887841e-05  4.20657262e-05  3.83259730e-04 
 1.90000000e+00  3.96578773e-05  4.60925158e-05  4.23168600e-04 
 2.00000000e+00  3.84538028e-05  4.99975082e-05  4.61927131e-04 
 2.10000000e+00  3.72791404e-05  5.37835323e-05  4.99553340e-04 
 2.20000000e+00  3.61351214e-05  5.74536016e-05  5.36069663e-04 
 2.30000000e+00  3.50221754e-05  6.10108090e-05  5.71501041e-04 
 2.40000000e+00  3.39402447e-05  6.44582641e-05  6.05873761e-04 
 2.50000000e+00  3.28889698e-05  6.77990539e-05  6.39214734e-04 
 2.60000000e+00  3.18678050e-05  7.10362196e-05  6.71551036e-04 
 2.70000000e+00  3.08760902e-05  7.41727415e-05  7.02909607e-04 
 2.80000000e+00  2.99130976e-05  7.72115298e-05  7.33317059e-04 
 2.90000000e+00  2.89780620e-05  8.01554201e-05  7.62799551e-04 
 3.00000000e+00  2.80702013e-05  8.30071701e-05  7.91382701e-04 
 3.10000000e+00  2.71887299e-05  8.57694590e-05  8.19091541e-04 
 3.20000000e+00  2.63328674e-05  8.84448878e-05  8.45950486e-04 
 3.30000000e+00  2.55018453e-05  9.10359795e-05  8.71983316e-04 
 3.40000000e+00  2.46949103e-05  9.35451813e-05  8.97213169e-04 
 3.50000000e+00  2.39113275e-05  9.59748657e-05  9.21662549e-04 
 3.60000000e+00  2.31503814e-05  9.83273326e-05  9.45353325e-04 
 3.70000000e+00  2.24113772e-05  1.00604811e-04  9.68306745e-04 
 3.80000000e+00  2.16936414e-05  1.02809463e-04  9.90543449e-04 
 3.90000000e+00  2.09965210e-05  1.04943382e-04  1.01208348e-03 
 4.00000000e+00  2.03193845e-05  1.07008599e-04  1.03294629e-03 
 4.10000000e+00  1.96616206e-05  1.09007081e-04  1.05315079e-03 
 4.20000000e+00  1.90226382e-05  1.10940736e-04  1.07271532e-03 
 4.30000000e+00  1.84018661e-05  1.12811415e-04  1.09165768e-03 
 4.40000000e+00  1.77987518e-05  1.14620911e-04  1.10999517e-03 
 4.50000000e+00  1.72127614e-05  1.16370962e-04  1.12774458e-03 
 4.60000000e+00  1.66433789e-05  1.18063257e-04  1.14492221e-03 
 4.70000000e+00  1.60901056e-05  1.19699429e-04  1.16154388e-03 
 4.80000000e+00  1.55524592e-05  1.21281067e-04  1.17762497e-03 
 4.90000000e+00  1.50299736e-05  1.22809710e-04  1.19318040e-03 
 5.00000000e+00  1.45221982e-05  1.24286851e-04  1.20822467e-03 
 5.10000000e+00  1.40286973e-05  1.25713940e-04  1.22277186e-03 
 5.20000000e+00  1.35490492e-05  1.27092383e-04  1.23683563e-03 
 5.30000000e+00  1.30828466e-05  1.28423544e-04  1.25042928e-03 
 5.40000000e+00  1.26296949e-05  1.29708748e-04  1.26356570e-03 
 5.50000000e+00  1.21892127e-05  1.30949282e-04  1.27625743e-03 
 0.00000000e+00  6.18342339e-12  3.52141210e-13  2.09409796e-13 
 1.00000000e-01  3.57955004e-11  2.03852559e-12  1.21226141e-12 
 2.00000000e-01  2.07220604e-10  1.18009679e-11  7.01774509e-12 
 3.00000000e-01  1.19968880e-09  6.83178915e-11  4.06268833e-11 
 4.00000000e-01  6.94842330e-09  3.95587121e-10  2.35242612e-10 
 5.00000000e-01  4.03412032e-08  2.29337153e-09  1.36370152e-09 
 6.00000000e-01  2.37314474e-07  1.33855607e-08  7.95705718e-09 
 7.00000000e-01  1.47513449e-06  8.06511421e-08  4.79789202e-08 
 8.00000000e-01  9.44810266e-06  5.15017650e-07  3.18668872e-07 
 9.00000000e-01  3.67077913e-05  2.66234350e-06  2.10747895e-06 
 1.00000000e+00  6.79762782e-05  7.98447434e-06  1.02203464e-05 
 1.10000000e+00  8.46771916e-05  1.57429061e-05  3.16405091e-05 
 1.20000000e+00  9.00873640e-05  2.45427331e-05  6.54885207e-05 
 1.30000000e+00  9.07004295e-05  3.36047360e-05  1.05371955e-04 
 1.40000000e+00  8.95376831e-05  4.26250021e-05  1.47245272e-04 
 1.50000000e+00  8.76772843e-05  5.14889429e-05  1.89398394e-04 
 1.60000000e+00  8.55243203e-05  6.01500913e-05  2.31120430e-04 
 1.70000000e+00  8.32510416e-05  6.85889317e-05  2.72093984e-04 
 1.80000000e+00  8.09392685e-05  7.67979996e-05  3.12169040e-04 
 1.90000000e+00  7.86311878e-05  8.47757794e-05  3.51274139e-04 
 2.00000000e+00  7.63497909e-05  9.25239062e-05  3.89378003e-04 
 2.10000000e+00  7.41080161e-05  1.00045761e-04  4.26471352e-04 
 2.20000000e+00  7.19132046e-05  1.07345710e-04  4.62557580e-04 
 2.30000000e+00  6.97694281e-05  1.14428681e-04  4.97647642e-04 
 2.40000000e+00  6.76787766e-05  1.21299895e-04  5.31757104e-04 
 2.50000000e+00  6.56421026e-05  1.27964721e-04  5.64904361e-04 
 2.60000000e+00  6.36594707e-05  1.34428567e-04  5.97109519e-04 
 2.70000000e+00  6.17304364e-05  1.40696822e-04  6.28393673e-04 
 2.80000000e+00  5.98542244e-05  1.46774811e-04  6.58778433e-04 
 2.90000000e+00  5.80298457e-05  1.52667772e-04  6.88285605e-04 
 3.00000000e+00  5.62561753e-05  1.58380833e-04  7.16936968e-04 
 3.10000000e+00  5.45320051e-05  1.63919009e-04  7.44754131e-04 
 3.20000000e+00  5.28560799e-05  1.69287189e-04  7.71758425e-04 
 3.30000000e+00  5.12271228e-05  1.74490134e-04  7.97970832e-04 
 3.40000000e+00  4.96438524e-05  1.79532481e-04  8.23411941e-04 
 3.50000000e+00  4.81049952e-05  1.84418734e-04  8.48101909e-04 
 3.60000000e+00  4.66092938e-05  1.89153274e-04  8.72060447e-04 
 3.70000000e+00  4.51555130e-05  1.93740355e-04  8.95306805e-04 
 3.80000000e+00  4.37424437e-05  1.98184110e-04  9.17859766e-04 
 3.90000000e+00  4.23689054e-05  2.02488552e-04  9.39737649e-04 
 4.00000000e+00  4.10337483e-05  2.06657578e-04  9.60958305e-04 
 4.10000000e+00  3.97358534e-05  2.10694969e-04  9.81539126e-04 
 4.20000000e+00  3.84741336e-05  2.14604398e-04  1.00149705e-03 
 4.30000000e+00  3.72475336e-05  2.18389431e-04  1.02084857e-03 
 4.40000000e+00  3.60550293e-05  2.22053528e-04  1.03960975e-03 
 4.50000000e+00  3.48956278e-05  2.25600050e-04  1.05779620e-03 
 4.60000000e+00  3.37683664e-05  2.29032259e-04  1.07542315e-03 
 4.70000000e+00  3.26723121e-05  2.32353323e-04  1.09250538e-03 
 4.80000000e+00  3.16065609e-05  2.35566317e-04  1.10905732e-03 
 4.90000000e+00  3.05702369e-05  2.38674228e-04  1.12509297e-03 
 5.00000000e+00  2.95624917e-05  2.41679956e-04  1.14062598e-03 
 5.10000000e+00  2.85825029e-05  2.44586318e-04  1.15566962e-03 
 5.20000000e+00  2.76294743e-05  2.47396050e-04  1.17023680e-03 
 5.30000000e+00  2.67026340e-05  2.50111809e-04  1.18434009e-03 
 5.40000000e+00  2.58012345e-05  2.52736177e-04  1.19799171e-03 
 5.50000000e+00  2.49245513e-05  2.55271661e-04  1.21120358e-03 
 0.00000000e+00  6.48217740e-12  3.69155022e-13  1.43520972e-13 
 1.00000000e-01  3.75249698e-11  2.13701755e-12  8.30834288e-13 
 2.00000000e-01  2.17232483e-10  1.23711340e-11  4.80965926e-12 
 3.00000000e-01  1.25765046e-09  7.16186441e-11  2.78433877e-11 
 4.00000000e-01  7.28408229e-09  4.14698434e-10  1.61204583e-10 
 5.00000000e-01  4.22884333e-08  2.40412311e-09  9.33917087e-10 
 6.00000000e-01  2.48721211e-07  1.40305642e-08  5.42984816e-09 
 7.00000000e-01  1.54498576e-06  8.45012715e-08  3.21203160e-08 
 8.00000000e-01  9.90769577e-06  5.39553239e-07  1.97192038e-07 
 9.00000000e-01  3.91558879e-05  2.80985590e-06  1.08274945e-06 
 1.00000000e+00  7.64628065e-05  8.63411379e-06  4.22951559e-06 
 1.10000000e+00  1.04125626e-04  1.77614568e-05  1.24175230e-05 
 1.20000000e+00  1.20436212e-04  2.90778948e-05  2.93439933e-05 
 1.30000000e+00  1.27636588e-04  4.15426674e-05  5.63138345e-05 
 1.40000000e+00  1.29291149e-04  5.44208269e-05  9.05063791e-05 
 1.50000000e+00  1.28229925e-04  6.73111092e-05  1.28274755e-04 
 1.60000000e+00  1.25941120e-04  8.00256961e-05  1.67325678e-04 
 1.70000000e+00  1.23099422e-04  9.24800521e-05  2.06520778e-04 
 1.80000000e+00  1.20011638e-04  1.04636162e-04  2.45318944e-04 
 1.90000000e+00  1.16825653e-04  1.16477666e-04  2.83457110e-04 
 2.00000000e+00  1.13617607e-04  1.27998955e-04  3.20803877e-04 
 2.10000000e+00  1.10428956e-04  1.39200104e-04  3.57293661e-04 
 2.20000000e+00  1.07283203e-04  1.50084339e-04  3.92895815e-04 
 2.30000000e+00  1.04193977e-04  1.60656700e-04  4.27599278e-04 
 2.40000000e+00  1.01169189e-04  1.70923275e-04  4.61404480e-04 
 2.50000000e+00  9.82133004e-05  1.80890758e-04  4.94318831e-04 
 2.60000000e+00  9.53286190e-05  1.90566173e-04  5.26354080e-04 
 2.70000000e+00  9.25160725e-05  1.99956702e-04  5.57524714e-04 
 2.80000000e+00  8.97756871e-05  2.09069567e-04  5.87846937e-04 
 2.90000000e+00  8.71068918e-05  2.17911965e-04  6.17338012e-04 
 3.00000000e+00  8.45087187e-05  2.26491012e-04  6.46015821e-04 
 3.10000000e+00  8.19799359e-05  2.34813714e-04  6.73898560e-04 
 3.20000000e+00  7.95191388e-05  2.42886943e-04  7.01004536e-04 
 3.30000000e+00  7.71248126e-05  2.50717425e-04  7.27352017e-04 
 3.40000000e+00  7.47953767e-05  2.58311731e-04  7.52959134e-04 
 3.50000000e+00  7.25292154e-05  2.65676273e-04  7.77843801e-04 
 3.60000000e+00  7.03247006e-05  2.72817298e-04  8.02023671e-04 
 3.70000000e+00  6.81802070e-05  2.79740890e-04  8.25516094e-04 
 3.80000000e+00  6.60941241e-05  2.86452975e-04  8.48338094e-04 
 3.90000000e+00  6.40648635e-05  2.92959313e-04  8.70506351e-04 
 4.00000000e+00  6.20908652e-05  2.99265512e-04  8.92037193e-04 
 4.10000000e+00  6.01706011e-05  3.05377021e-04  9.12946587e-04 
 4.20000000e+00  5.83025778e-05  3.11299140e-04  9.33250136e-04 
 4.30000000e+00  5.64853384e-05  3.17037022e-04  9.52963084e-04 
 4.40000000e+00  5.47174633e-05  3.22595674e-04  9.72100312e-04 
 4.50000000e+00  5.29975706e-05  3.27979965e-04  9.90676342e-04 
 4.60000000e+00  5.13243164e-05  3.33194625e-04  1.00870535e-03 
 4.70000000e+00  4.96963941e-05  3.38244254e-04  1.02620115e-03 
 4.80000000e+00  4.81125346e-05  3.43133322e-04  1.04317724e-03 
 4.90000000e+00  4.65715050e-05  3.47866173e-04  1.05964675e-03 
 5.00000000e+00  4.50721085e-05  3.52447031e-04  1.07562252e-03 
 5.10000000e+00  4.36131830e-05  3.56880002e-04  1.09111703e-03 
 5.20000000e+00  4.21936006e-05  3.61169076e-04  1.10614247e-03 
 5.30000000e+00  4.08122666e-05  3.65318132e-04  1.12071072e-03 
 5.40000000e+00  3.94681187e-05  3.69330943e-04  1.13483336e-03 
 5.50000000e+00  3.81601258e-05  3.73211175e-04  1.14852167e-03 
 0.00000000e+00  6.70890415e-12  3.82066939e-13  1.17742815e-13 
 1.00000000e-01  3.88374765e-11  2.21176385e-12  6.81605872e-13 
 2.00000000e-01  2.24830532e-10  1.28038363e-11  3.94577616e-12 
 3.00000000e-01  1.30163651e-09  7.41235683e-11  2.28420832e-11 
 4.00000000e-01  7.53876576e-09  4.29200715e-10  1.32240652e-10 
 5.00000000e-01  4.37645026e-08  2.48812494e-09  7.65853337e-10 
 6.00000000e-01  2.57321628e-07  1.45184530e-08  4.44394327e-09 
 7.00000000e-01  1.59623541e-06  8.73716371e-08  2.60141796e-08 
 8.00000000e-01  1.02138041e-05  5.56793497e-07  1.53149430e-07 
 9.00000000e-01  4.04908492e-05  2.89994526e-06  7.64902609e-07 
 1.00000000e+00  8.01611572e-05  8.96240337e-06  2.61166553e-06 
 1.10000000e+00  1.12321515e-04  1.86621449e-05  6.66131105e-06 
 1.20000000e+00  1.35918547e-04  3.11411753e-05  1.44548597e-05 
 1.30000000e+00  1.51709968e-04  4.55852559e-05  2.81288470e-05 
 1.40000000e+00  1.60407788e-04  6.12447558e-05  4.92831570e-05 
 1.50000000e+00  1.63571693e-04  7.74808104e-05  7.74765805e-05 
 1.60000000e+00  1.63217662e-04  9.38412307e-05  1.10521946e-04 
 1.70000000e+00  1.60949265e-04  1.10059919e-04  1.46114869e-04 
 1.80000000e+00  1.57721397e-04  1.25998022e-04  1.82693084e-04 
 1.90000000e+00  1.54033426e-04  1.41587362e-04  2.19381672e-04 
 2.00000000e+00  1.50139057e-04  1.56796031e-04  2.55722542e-04 
 2.10000000e+00  1.46169887e-04  1.71610671e-04  2.91478646e-04 
 2.20000000e+00  1.42196812e-04  1.86027705e-04  3.26527046e-04 
 2.30000000e+00  1.38259500e-04  2.00048917e-04  3.60804773e-04 
 2.40000000e+00  1.34380796e-04  2.13679135e-04  3.94281489e-04 
 2.50000000e+00  1.30574053e-04  2.26924954e-04  4.26945318e-04 
 2.60000000e+00  1.26847030e-04  2.39793998e-04  4.58795218e-04 
 2.70000000e+00  1.23204060e-04  2.52294483e-04  4.89836709e-04 
 2.80000000e+00  1.19647320e-04  2.64434944e-04  5.20079376e-04 
 2.90000000e+00  1.16177584e-04  2.76224055e-04  5.49535363e-04 
 3.00000000e+00  1.12794708e-04  2.87670521e-04  5.78218432e-04 
 3.10000000e+00  1.09497928e-04  2.98782997e-04  6.06143346e-04 
 3.20000000e+00  1.06286069e-04  3.09570041e-04  6.33325475e-04 
 3.30000000e+00  1.03157674e-04  3.20040078e-04  6.59780517e-04 
 3.40000000e+00  1.00111106e-04  3.30201376e-04  6.85524316e-04 
 3.50000000e+00  9.71446069e-05  3.40062033e-04  7.10572723e-04 
 3.60000000e+00  9.42563464e-05  3.49629969e-04  7.34941509e-04 
 3.70000000e+00  9.14444549e-05  3.58912916e-04  7.58646298e-04 
 3.80000000e+00  8.87070473e-05  3.67918420e-04  7.81702514e-04 
 3.90000000e+00  8.60422399e-05  3.76653837e-04  8.04125354e-04 
 4.00000000e+00  8.34481628e-05  3.85126335e-04  8.25929759e-04 
 4.10000000e+00  8.09229695e-05  3.93342896e-04  8.47130402e-04 
 4.20000000e+00  7.84648426e-05  4.01310319e-04  8.67741670e-04 
 4.30000000e+00  7.60719991e-05  4.09035223e-04  8.87777663e-04 
 4.40000000e+00  7.37426928e-05  4.16524050e-04  9.07252185e-04 
 4.50000000e+00  7.14752172e-05  4.23783070e-04  9.26178748e-04 
 4.60000000e+00  6.92679062e-05  4.30818382e-04  9.44570565e-04 
 4.70000000e+00  6.71191352e-05  4.37635923e-04  9.62440556e-04 
 4.80000000e+00  6.50273212e-05  4.44241468e-04  9.79801351e-04 
 4.90000000e+00  6.29909229e-05  4.50640636e-04  9.96665290e-04 
 5.00000000e+00  6.10084399e-05  4.56838895e-04  1.01304443e-03 
 5.10000000e+00  5.90784129e-05  4.62841562e-04  1.02895054e-03 
 5.20000000e+00  5.71994226e-05  4.68653813e-04  1.04439513e-03 
 5.30000000e+00  5.53700887e-05  4.74280683e-04  1.05938942e-03 
 5.40000000e+00  5.35890697e-05  4.79727070e-04  1.07394438e-03 
 5.50000000e+00  5.18550614e-05  4.84997741e-04  1.08807071e-03 
 0.00000000e+00  6.90221810e-12  3.93076022e-13  1.03610086e-13 
 1.00000000e-01  3.99565581e-11  2.27549474e-12  5.99792252e-13 
 2.00000000e-01  2.31308831e-10  1.31727704e-11  3.47215773e-12 
 3.00000000e-01  1.33913955e-09  7.62593190e-11  2.01001668e-11 
 4.00000000e-01  7.75589041e-09  4.41565049e-10  1.16362031e-10 
 5.00000000e-01  4.50221733e-08  2.55972259e-09  6.73736520e-10 
 6.00000000e-01  2.64625930e-07  1.49336197e-08  3.90420901e-09 
 7.00000000e-01  1.63905622e-06  8.97931111e-08  2.26935923e-08 
 8.00000000e-01  1.04555630e-05  5.70846529e-07  1.29941684e-07 
 9.00000000e-01  4.14366590e-05  2.96803929e-06  6.12012173e-07 
 1.00000000e+00  8.24199605e-05  9.18577171e-06  1.93410396e-06 
 1.10000000e+00  1.16641163e-04  1.92064497e-05  4.51320042e-06 
 1.20000000e+00  1.43542291e-04  3.22699215e-05  8.93256387e-06 
 1.30000000e+00  1.64313872e-04  4.77110057e-05  1.61396565e-05 
 1.40000000e+00  1.79359504e-04  6.49411858e-05  2.74284435e-05 
 1.50000000e+00  1.88915931e-04  8.33984578e-05  4.40783599e-05 
 1.60000000e+00  1.93580617e-04  1.02559454e-04  6.66339490e-05 
 1.70000000e+00  1.94440552e-04  1.21986095e-04  9.44166329e-05 
 1.80000000e+00  1.92754849e-04  1.41361312e-04  1.25885295e-04 
 1.90000000e+00  1.89566642e-04  1.60485503e-04  1.59434844e-04 
 2.00000000e+00  1.85567873e-04  1.79245847e-04  1.93869712e-04 
 2.10000000e+00  1.81163622e-04  1.97583476e-04  2.28444678e-04 
 2.20000000e+00  1.76578665e-04  2.15470205e-04  2.62734950e-04 
 2.30000000e+00  1.71936524e-04  2.32894756e-04  2.96508173e-04 
 2.40000000e+00  1.67305913e-04  2.49855182e-04  3.29640104e-04 
