 frequency  @m.xm1.msky130_fd_pr__pfet_g5v0d10v5[cdd] @m.xm1.msky130_fd_pr__pfet_g5v0d10v5[cgb] @m.xm1.msky130_fd_pr__pfet_g5v0d10v5[cgd] @m.xm1.msky130_fd_pr__pfet_g5v0d10v5[cgdo] @m.xm1.msky130_fd_pr__pfet_g5v0d10v5[cgg] @m.xm1.msky130_fd_pr__pfet_g5v0d10v5[cgs] @m.xm1.msky130_fd_pr__pfet_g5v0d10v5[cgso] @m.xm1.msky130_fd_pr__pfet_g5v0d10v5[css] @m.xm1.msky130_fd_pr__pfet_g5v0d10v5[gds] @m.xm1.msky130_fd_pr__pfet_g5v0d10v5[gm] @m.xm1.msky130_fd_pr__pfet_g5v0d10v5[gmbs] @m.xm1.msky130_fd_pr__pfet_g5v0d10v5[id] @m.xm1.msky130_fd_pr__pfet_g5v0d10v5[l] @m.xm1.msky130_fd_pr__pfet_g5v0d10v5[vds] @m.xm1.msky130_fd_pr__pfet_g5v0d10v5[vdsat] @m.xm1.msky130_fd_pr__pfet_g5v0d10v5[vgs] @m.xm1.msky130_fd_pr__pfet_g5v0d10v5[vth] frequency  vsb       
 1.000e+00  4.573e-17 -2.405e-15 -4.035e-17  1.074e-15  2.423e-15  2.294e-17  1.074e-15 -1.028e-17  1.128e-14  0.000e+00  0.000e+00  0.000e+00  5.000e-07 -3.963e-48  4.250e-02  9.604e-49  9.528e-01  1.000e+00  0.000e+00 
 1.000e+00  1.486e-17 -1.750e-15 -1.393e-17  1.074e-15  1.756e-15  7.345e-18  1.074e-15 -3.424e-18  1.680e-16  0.000e+00  0.000e+00  0.000e+00  5.000e-07  0.000e+00  4.512e-02  2.320e-14  1.059e+00  1.000e+00  4.000e-01 
 1.000e+00  5.772e-18 -1.442e-15 -5.673e-18  1.074e-15  1.445e-15  2.839e-18  1.074e-15 -1.331e-18  4.847e-18  0.000e+00  0.000e+00  0.000e+00  5.000e-07  0.000e+00  4.730e-02  4.640e-14  1.148e+00  1.000e+00  8.000e-01 
 1.000e+00  2.521e-18 -1.254e-15 -2.581e-18  1.074e-15  1.256e-15  1.221e-18  1.074e-15 -5.812e-19  2.139e-19  0.000e+00  0.000e+00  0.000e+00  5.000e-07  0.000e+00  4.926e-02  6.960e-14  1.228e+00  1.000e+00  1.200e+00 
 1.000e+00  6.088e-19 -1.029e-15 -6.690e-19  1.074e-15  1.030e-15  2.549e-19  1.074e-15 -1.398e-19  9.694e-22  9.328e-54 -9.998e-40  0.000e+00  5.000e-07  2.524e-29  5.283e-02  1.160e-13  1.365e+00  1.000e+00  2.000e+00 
 1.000e+00  1.380e-19 -8.676e-16 -1.637e-19  1.074e-15  8.677e-16  1.726e-20  1.074e-15 -3.167e-20  3.253e-24  0.000e+00  0.000e+00  0.000e+00  5.000e-07 -2.524e-29  5.700e-02  1.740e-13  1.510e+00  1.000e+00  3.000e+00 
 1.000e+00  2.195e-18 -2.407e-15 -1.742e-18  1.072e-15  2.420e-15 -1.138e-17  1.074e-15  9.507e-18  1.691e-15  6.675e-15  3.184e-15  2.750e-16  5.000e-07  5.000e-02  4.250e-02 -1.595e-17  9.525e-01  1.000e+00  0.000e+00 
 1.000e+00  7.028e-19 -1.750e-15 -5.884e-19  1.072e-15  1.755e-15 -4.578e-18  1.074e-15  3.049e-18  2.799e-17  1.108e-16  4.032e-17  4.259e-18  5.000e-07  5.000e-02  4.512e-02  2.320e-14  1.058e+00  1.000e+00  4.000e-01 
 1.000e+00  2.713e-19 -1.442e-15 -2.373e-19  1.072e-15  1.444e-15 -2.018e-18  1.074e-15  1.184e-18  8.780e-19  3.442e-18  1.038e-18  1.266e-19  5.000e-07  5.000e-02  4.730e-02  4.640e-14  1.148e+00  1.000e+00  8.000e-01 
 1.000e+00  1.181e-19 -1.255e-15 -1.073e-19  1.072e-15  1.256e-15 -9.882e-19  1.074e-15  5.173e-19  4.166e-20  1.608e-19  4.197e-20  5.732e-21  5.000e-07  5.000e-02  4.925e-02  6.960e-14  1.227e+00  1.000e+00  1.200e+00 
 1.000e+00  2.841e-20 -1.029e-15 -2.763e-20  1.072e-15  1.030e-15 -3.170e-19  1.074e-15  1.251e-19  2.139e-22  7.945e-22  1.669e-22  2.713e-23  5.000e-07  5.000e-02  5.283e-02  1.160e-13  1.364e+00  1.000e+00  2.000e+00 
 1.000e+00  6.416e-21 -8.676e-16 -6.722e-21  1.072e-15  8.677e-16 -1.228e-19  1.074e-15  2.844e-20  8.199e-25  2.889e-24  4.970e-25  9.532e-26  5.000e-07  5.000e-02  5.700e-02  1.740e-13  1.509e+00  1.000e+00  3.000e+00 
 1.000e+00  4.990e-19 -2.407e-15 -3.735e-19  1.070e-15  2.420e-15 -1.236e-17  1.074e-15  9.975e-18  4.998e-16  7.713e-15  3.672e-15  3.177e-16  5.000e-07  1.000e-01  4.250e-02 -1.843e-17  9.523e-01  1.000e+00  0.000e+00 
 1.000e+00  1.587e-19 -1.750e-15 -1.221e-19  1.070e-15  1.755e-15 -4.916e-18  1.074e-15  3.200e-18  8.038e-18  1.291e-16  4.688e-17  4.961e-18  5.000e-07  1.000e-01  4.512e-02  2.320e-14  1.058e+00  1.000e+00  4.000e-01 
 1.000e+00  6.088e-20 -1.442e-15 -4.813e-20  1.070e-15  1.444e-15 -2.156e-18  1.074e-15  1.243e-18  2.473e-19  4.039e-18  1.215e-18  1.485e-19  5.000e-07  1.000e-01  4.730e-02  4.640e-14  1.148e+00  1.000e+00  8.000e-01 
 1.000e+00  2.634e-20 -1.255e-15 -2.140e-20  1.070e-15  1.256e-15 -1.051e-18  1.074e-15  5.433e-19  1.157e-20  1.900e-19  4.948e-20  6.772e-21  5.000e-07  1.000e-01  4.925e-02  6.960e-14  1.227e+00  1.000e+00  1.200e+00 
 1.000e+00  6.260e-21 -1.029e-15 -5.362e-21  1.070e-15  1.030e-15 -3.334e-19  1.074e-15  1.315e-19  5.842e-23  9.514e-22  1.993e-22  3.249e-23  5.000e-07  1.000e-01  5.283e-02  1.160e-13  1.364e+00  1.000e+00  2.000e+00 
 1.000e+00  1.393e-21 -8.676e-16 -1.271e-21  1.070e-15  8.677e-16 -1.268e-19  1.074e-15  2.990e-20  2.225e-25  3.519e-24  6.033e-25  1.161e-25  5.000e-07  1.000e-01  5.699e-02  1.740e-13  1.509e+00  1.000e+00  3.000e+00 
 1.000e+00  1.753e-19 -2.407e-15 -1.201e-19  1.067e-15  2.420e-15 -1.251e-17  1.074e-15  1.005e-17  3.802e-16  8.228e-15  3.916e-15  3.390e-16  5.000e-07  1.500e-01  4.250e-02 -1.966e-17  9.520e-01  1.000e+00  0.000e+00 
 1.000e+00  5.481e-20 -1.750e-15 -3.563e-20  1.067e-15  1.755e-15 -4.971e-18  1.074e-15  3.225e-18  6.064e-18  1.379e-16  5.007e-17  5.300e-18  5.000e-07  1.500e-01  4.512e-02  2.320e-14  1.058e+00  1.000e+00  4.000e-01 
 1.000e+00  2.067e-20 -1.442e-15 -1.306e-20  1.067e-15  1.444e-15 -2.179e-18  1.074e-15  1.253e-18  1.853e-19  4.321e-18  1.300e-18  1.589e-19  5.000e-07  1.500e-01  4.730e-02  4.640e-14  1.147e+00  1.000e+00  8.000e-01 
 1.000e+00  8.801e-21 -1.255e-15 -5.459e-21  1.067e-15  1.256e-15 -1.062e-18  1.074e-15  5.478e-19  8.616e-21  2.036e-19  5.298e-20  7.256e-21  5.000e-07  1.500e-01  4.925e-02  6.960e-14  1.227e+00  1.000e+00  1.200e+00 
 1.000e+00  2.025e-21 -1.029e-15 -1.230e-21  1.067e-15  1.030e-15 -3.362e-19  1.074e-15  1.326e-19  4.299e-23  1.022e-21  2.141e-22  3.491e-23  5.000e-07  1.500e-01  5.283e-02  1.160e-13  1.364e+00  1.000e+00  2.000e+00 
 1.000e+00  4.320e-22 -8.676e-16 -2.591e-22  1.067e-15  8.677e-16 -1.275e-19  1.074e-15  3.018e-20  1.613e-25  3.795e-24  6.502e-25  1.252e-25  5.000e-07  1.500e-01  5.699e-02  1.740e-13  1.508e+00  1.000e+00  3.000e+00 
 1.000e+00  7.266e-20 -2.407e-15 -4.093e-20  1.065e-15  2.420e-15 -1.255e-17  1.074e-15  1.008e-17  3.477e-16  8.667e-15  4.124e-15  3.570e-16  5.000e-07  2.000e-01  4.249e-02 -2.071e-17  9.517e-01  1.000e+00  0.000e+00 
 1.000e+00  2.182e-20 -1.750e-15 -8.586e-21  1.065e-15  1.755e-15 -4.988e-18  1.074e-15  3.235e-18  5.562e-18  1.454e-16  5.278e-17  5.589e-18  5.000e-07  2.000e-01  4.512e-02  2.320e-14  1.058e+00  1.000e+00  4.000e-01 
 1.000e+00  7.907e-21 -1.442e-15 -2.076e-21  1.065e-15  1.444e-15 -2.187e-18  1.074e-15  1.257e-18  1.704e-19  4.561e-18  1.371e-18  1.678e-19  5.000e-07  2.000e-01  4.730e-02  4.640e-14  1.147e+00  1.000e+00  8.000e-01 
 1.000e+00  3.230e-21 -1.255e-15 -4.671e-22  1.065e-15  1.256e-15 -1.066e-18  1.074e-15  5.498e-19  7.942e-21  2.151e-19  5.597e-20  7.667e-21  5.000e-07  2.000e-01  4.925e-02  6.960e-14  1.226e+00  1.000e+00  1.200e+00 
 1.000e+00  6.797e-22 -1.029e-15  6.506e-23  1.065e-15  1.030e-15 -3.373e-19  1.074e-15  1.332e-19  3.979e-23  1.082e-21  2.266e-22  3.696e-23  5.000e-07  2.000e-01  5.283e-02  1.160e-13  1.363e+00  1.000e+00  2.000e+00 
 1.000e+00  1.266e-22 -8.676e-16  5.843e-23  1.065e-15  8.677e-16 -1.278e-19  1.074e-15  3.033e-20  1.500e-25  4.030e-24  6.900e-25  1.329e-25  5.000e-07  2.000e-01  5.699e-02  1.740e-13  1.508e+00  1.000e+00  3.000e+00 
 1.000e+00  3.027e-20 -2.407e-15 -8.521e-21  1.063e-15  2.420e-15 -1.257e-17  1.074e-15  1.009e-17  3.325e-16  9.079e-15  4.319e-15  3.740e-16  5.000e-07  2.500e-01  4.249e-02 -2.169e-17  9.515e-01  1.000e+00  0.000e+00 
 1.000e+00  8.190e-21 -1.750e-15  2.497e-21  1.063e-15  1.755e-15 -4.997e-18  1.074e-15  3.242e-18  5.340e-18  1.525e-16  5.533e-17  5.861e-18  5.000e-07  2.500e-01  4.512e-02  2.320e-14  1.057e+00  1.000e+00  4.000e-01 
 1.000e+00  2.627e-21 -1.442e-15  2.428e-21  1.063e-15  1.444e-15 -2.191e-18  1.074e-15  1.260e-18  1.642e-19  4.788e-18  1.439e-18  1.761e-19  5.000e-07  2.500e-01  4.730e-02  4.640e-14  1.147e+00  1.000e+00  8.000e-01 
 1.000e+00  9.257e-22 -1.255e-15  1.582e-21  1.063e-15  1.256e-15 -1.068e-18  1.074e-15  5.513e-19  7.677e-21  2.260e-19  5.879e-20  8.056e-21  5.000e-07  2.500e-01  4.925e-02  6.960e-14  1.226e+00  1.000e+00  1.200e+00 
 1.000e+00  1.226e-22 -1.029e-15  5.975e-22  1.063e-15  1.030e-15 -3.379e-19  1.074e-15  1.336e-19  3.869e-23  1.140e-21  2.385e-22  3.892e-23  5.000e-07  2.500e-01  5.283e-02  1.160e-13  1.363e+00  1.000e+00  2.000e+00 
 1.000e+00 -2.064e-26 -8.676e-16  1.892e-22  1.063e-15  8.677e-16 -1.280e-19  1.074e-15  3.044e-20  1.468e-25  4.254e-24  7.280e-25  1.403e-25  5.000e-07  2.500e-01  5.699e-02  1.740e-13  1.507e+00  1.000e+00  3.000e+00 
 1.000e+00  9.652e-21 -2.407e-15  7.159e-21  1.061e-15  2.420e-15 -1.259e-17  1.074e-15  1.011e-17  3.235e-16  9.476e-15  4.507e-15  3.904e-16  5.000e-07  3.000e-01  4.249e-02 -2.264e-17  9.512e-01  1.000e+00  0.000e+00 
 1.000e+00  1.553e-21 -1.750e-15  7.868e-21  1.061e-15  1.755e-15 -5.005e-18  1.074e-15  3.248e-18  5.216e-18  1.593e-16  5.780e-17  6.124e-18  5.000e-07  3.000e-01  4.512e-02  2.320e-14  1.057e+00  1.000e+00  4.000e-01 
 1.000e+00  5.504e-23 -1.442e-15  4.614e-21  1.061e-15  1.444e-15 -2.195e-18  1.074e-15  1.263e-18  1.609e-19  5.008e-18  1.505e-18  1.842e-19  5.000e-07  3.000e-01  4.730e-02  4.640e-14  1.146e+00  1.000e+00  8.000e-01 
 1.000e+00 -1.976e-22 -1.255e-15  2.578e-21  1.061e-15  1.256e-15 -1.070e-18  1.074e-15  5.526e-19  7.549e-21  2.367e-19  6.154e-20  8.436e-21  5.000e-07  3.000e-01  4.925e-02  6.960e-14  1.226e+00  1.000e+00  1.200e+00 
 1.000e+00 -1.493e-22 -1.029e-15  8.569e-22  1.061e-15  1.030e-15 -3.385e-19  1.074e-15  1.340e-19  3.826e-23  1.196e-21  2.501e-22  4.084e-23  5.000e-07  3.000e-01  5.283e-02  1.160e-13  1.362e+00  1.000e+00  2.000e+00 
 1.000e+00 -6.191e-23 -8.676e-16  2.531e-22  1.061e-15  8.677e-16 -1.281e-19  1.074e-15  3.055e-20  1.461e-25  4.476e-24  7.656e-25  1.476e-25  5.000e-07  3.000e-01  5.699e-02  1.740e-13  1.507e+00  1.000e+00  3.000e+00 
 1.000e+00 -1.573e-21 -2.407e-15  1.566e-20  1.060e-15  2.420e-15 -1.260e-17  1.074e-15  1.012e-17  3.177e-16  9.865e-15  4.690e-15  4.064e-16  5.000e-07  3.500e-01  4.249e-02 -2.357e-17  9.509e-01  1.000e+00  0.000e+00 
 1.000e+00 -2.064e-21 -1.750e-15  1.079e-20  1.060e-15  1.755e-15 -5.011e-18  1.074e-15  3.253e-18  5.142e-18  1.661e-16  6.023e-17  6.383e-18  5.000e-07  3.500e-01  4.512e-02  2.320e-14  1.057e+00  1.000e+00  4.000e-01 
 1.000e+00 -1.348e-21 -1.442e-15  5.806e-21  1.060e-15  1.444e-15 -2.198e-18  1.074e-15  1.266e-18  1.591e-19  5.226e-18  1.570e-18  1.922e-19  5.000e-07  3.500e-01  4.730e-02  4.640e-14  1.146e+00  1.000e+00  8.000e-01 
 1.000e+00 -8.108e-22 -1.255e-15  3.122e-21  1.060e-15  1.256e-15 -1.071e-18  1.074e-15  5.539e-19  7.487e-21  2.472e-19  6.426e-20  8.812e-21  5.000e-07  3.500e-01  4.925e-02  6.960e-14  1.225e+00  1.000e+00  1.200e+00 
 1.000e+00 -2.980e-22 -1.029e-15  9.990e-22  1.060e-15  1.030e-15 -3.391e-19  1.074e-15  1.344e-19  3.815e-23  1.252e-21  2.617e-22  4.275e-23  5.000e-07  3.500e-01  5.283e-02  1.160e-13  1.362e+00  1.000e+00  2.000e+00 
 1.000e+00 -9.585e-23 -8.676e-16  2.883e-22  1.060e-15  8.677e-16 -1.283e-19  1.074e-15  3.066e-20  1.465e-25  4.697e-24  8.031e-25  1.550e-25  5.000e-07  3.500e-01  5.699e-02  1.740e-13  1.507e+00  1.000e+00  3.000e+00 
 1.000e+00 -8.207e-21 -2.407e-15  2.068e-20  1.058e-15  2.420e-15 -1.261e-17  1.074e-15  1.014e-17  3.140e-16  1.025e-14  4.871e-15  4.222e-16  5.000e-07  4.000e-01  4.249e-02 -2.449e-17  9.507e-01  1.000e+00  0.000e+00 
 1.000e+00 -4.204e-21 -1.750e-15  1.252e-20  1.058e-15  1.755e-15 -5.018e-18  1.074e-15  3.259e-18  5.098e-18  1.727e-16  6.262e-17  6.639e-18  5.000e-07  4.000e-01  4.512e-02  2.320e-14  1.056e+00  1.000e+00  4.000e-01 
 1.000e+00 -2.179e-21 -1.442e-15  6.514e-21  1.058e-15  1.444e-15 -2.201e-18  1.074e-15  1.268e-18  1.582e-19  5.441e-18  1.634e-18  2.001e-19  5.000e-07  4.000e-01  4.730e-02  4.640e-14  1.146e+00  1.000e+00  8.000e-01 
 1.000e+00 -1.175e-21 -1.255e-15  3.446e-21  1.058e-15  1.256e-15 -1.073e-18  1.074e-15  5.551e-19  7.464e-21  2.577e-19  6.696e-20  9.186e-21  5.000e-07  4.000e-01  4.925e-02  6.960e-14  1.225e+00  1.000e+00  1.200e+00 
 1.000e+00 -3.865e-22 -1.029e-15  1.084e-21  1.058e-15  1.030e-15 -3.396e-19  1.074e-15  1.348e-19  3.822e-23  1.308e-21  2.733e-22  4.466e-23  5.000e-07  4.000e-01  5.283e-02  1.160e-13  1.362e+00  1.000e+00  2.000e+00 
 1.000e+00 -1.161e-22 -8.676e-16  3.095e-22  1.058e-15  8.677e-16 -1.285e-19  1.074e-15  3.076e-20  1.476e-25  4.920e-24  8.408e-25  1.623e-25  5.000e-07  4.000e-01  5.699e-02  1.740e-13  1.506e+00  1.000e+00  3.000e+00 
 1.000e+00 -1.238e-20 -2.407e-15  2.384e-20  1.057e-15  2.420e-15 -1.262e-17  1.074e-15  1.015e-17  3.116e-16  1.063e-14  5.050e-15  4.378e-16  5.000e-07  4.500e-01  4.249e-02 -2.539e-17  9.504e-01  1.000e+00  0.000e+00 
 1.000e+00 -5.554e-21 -1.750e-15  1.361e-20  1.057e-15  1.755e-15 -5.024e-18  1.074e-15  3.264e-18  5.074e-18  1.793e-16  6.500e-17  6.893e-18  5.000e-07  4.500e-01  4.512e-02  2.320e-14  1.056e+00  1.000e+00  4.000e-01 
 1.000e+00 -2.704e-21 -1.442e-15  6.963e-21  1.057e-15  1.444e-15 -2.205e-18  1.074e-15  1.271e-18  1.579e-19  5.656e-18  1.698e-18  2.080e-19  5.000e-07  4.500e-01  4.730e-02  4.640e-14  1.146e+00  1.000e+00  8.000e-01 
 1.000e+00 -1.405e-21 -1.255e-15  3.653e-21  1.057e-15  1.256e-15 -1.075e-18  1.074e-15  5.564e-19  7.469e-21  2.682e-19  6.965e-20  9.559e-21  5.000e-07  4.500e-01  4.925e-02  6.960e-14  1.224e+00  1.000e+00  1.200e+00 
 1.000e+00 -4.427e-22 -1.029e-15  1.139e-21  1.057e-15  1.030e-15 -3.401e-19  1.074e-15  1.351e-19  3.843e-23  1.364e-21  2.849e-22  4.658e-23  5.000e-07  4.500e-01  5.283e-02  1.160e-13  1.361e+00  1.000e+00  2.000e+00 
 1.000e+00 -1.291e-22 -8.676e-16  3.233e-22  1.057e-15  8.677e-16 -1.286e-19  1.074e-15  3.087e-20  1.492e-25  5.145e-24  8.787e-25  1.697e-25  5.000e-07  4.500e-01  5.699e-02  1.740e-13  1.506e+00  1.000e+00  3.000e+00 
 1.000e+00 -1.515e-20 -2.407e-15  2.593e-20  1.056e-15  2.420e-15 -1.263e-17  1.074e-15  1.016e-17  3.102e-16  1.101e-14  5.228e-15  4.534e-16  5.000e-07  5.000e-01  4.249e-02 -2.629e-17  9.502e-01  1.000e+00  0.000e+00 
 1.000e+00 -6.449e-21 -1.750e-15  1.434e-20  1.056e-15  1.755e-15 -5.030e-18  1.074e-15  3.270e-18  5.066e-18  1.859e-16  6.737e-17  7.147e-18  5.000e-07  5.000e-01  4.512e-02  2.320e-14  1.056e+00  1.000e+00  4.000e-01 
 1.000e+00 -3.053e-21 -1.442e-15  7.265e-21  1.056e-15  1.444e-15 -2.208e-18  1.074e-15  1.273e-18  1.581e-19  5.871e-18  1.762e-18  2.159e-19  5.000e-07  5.000e-01  4.730e-02  4.640e-14  1.145e+00  1.000e+00  8.000e-01 
 1.000e+00 -1.558e-21 -1.255e-15  3.792e-21  1.056e-15  1.256e-15 -1.077e-18  1.074e-15  5.577e-19  7.495e-21  2.787e-19  7.235e-20  9.933e-21  5.000e-07  5.000e-01  4.925e-02  6.960e-14  1.224e+00  1.000e+00  1.200e+00 
 1.000e+00 -4.803e-22 -1.029e-15  1.176e-21  1.056e-15  1.030e-15 -3.407e-19  1.074e-15  1.355e-19  3.873e-23  1.420e-21  2.965e-22  4.850e-23  5.000e-07  5.000e-01  5.283e-02  1.160e-13  1.361e+00  1.000e+00  2.000e+00 
 1.000e+00 -1.378e-22 -8.676e-16  3.328e-22  1.056e-15  8.677e-16 -1.288e-19  1.074e-15  3.097e-20  1.511e-25  5.373e-24  9.171e-25  1.772e-25  5.000e-07  5.000e-01  5.699e-02  1.740e-13  1.505e+00  1.000e+00  3.000e+00 
 1.000e+00 -1.706e-20 -2.407e-15  2.738e-20  1.055e-15  2.420e-15 -1.264e-17  1.074e-15  1.018e-17  3.096e-16  1.138e-14  5.405e-15  4.688e-16  5.000e-07  5.500e-01  4.249e-02 -2.719e-17  9.499e-01  1.000e+00  0.000e+00 
 1.000e+00 -7.069e-21 -1.750e-15  1.485e-20  1.055e-15  1.755e-15 -5.037e-18  1.074e-15  3.276e-18  5.070e-18  1.925e-16  6.974e-17  7.400e-18  5.000e-07  5.500e-01  4.512e-02  2.320e-14  1.055e+00  1.000e+00  4.000e-01 
 1.000e+00 -3.295e-21 -1.442e-15  7.477e-21  1.055e-15  1.444e-15 -2.211e-18  1.074e-15  1.276e-18  1.586e-19  6.086e-18  1.826e-18  2.239e-19  5.000e-07  5.500e-01  4.730e-02  4.640e-14  1.145e+00  1.000e+00  8.000e-01 
 1.000e+00 -1.665e-21 -1.255e-15  3.891e-21  1.055e-15  1.256e-15 -1.078e-18  1.074e-15  5.589e-19  7.537e-21  2.892e-19  7.506e-20  1.031e-20  5.000e-07  5.500e-01  4.925e-02  6.960e-14  1.224e+00  1.000e+00  1.200e+00 
 1.000e+00 -5.067e-22 -1.029e-15  1.203e-21  1.055e-15  1.030e-15 -3.412e-19  1.074e-15  1.359e-19  3.911e-23  1.477e-21  3.083e-22  5.045e-23  5.000e-07  5.500e-01  5.283e-02  1.160e-13  1.360e+00  1.000e+00  2.000e+00 
 1.000e+00 -1.440e-22 -8.676e-16  3.397e-22  1.055e-15  8.677e-16 -1.289e-19  1.074e-15  3.108e-20  1.533e-25  5.603e-24  9.560e-25  1.848e-25  5.000e-07  5.500e-01  5.699e-02  1.740e-13  1.505e+00  1.000e+00  3.000e+00 
 1.000e+00 -1.842e-20 -2.407e-15  2.841e-20  1.054e-15  2.420e-15 -1.265e-17  1.074e-15  1.019e-17  3.096e-16  1.176e-14  5.582e-15  4.843e-16  5.000e-07  6.000e-01  4.249e-02 -2.809e-17  9.496e-01  1.000e+00  0.000e+00 
 1.000e+00 -7.512e-21 -1.750e-15  1.522e-20  1.054e-15  1.755e-15 -5.043e-18  1.074e-15  3.281e-18  5.084e-18  1.991e-16  7.211e-17  7.654e-18  5.000e-07  6.000e-01  4.512e-02  2.320e-14  1.055e+00  1.000e+00  4.000e-01 
 1.000e+00 -3.470e-21 -1.442e-15  7.632e-21  1.054e-15  1.444e-15 -2.215e-18  1.074e-15  1.278e-18  1.594e-19  6.302e-18  1.890e-18  2.318e-19  5.000e-07  6.000e-01  4.730e-02  4.640e-14  1.145e+00  1.000e+00  8.000e-01 
 1.000e+00 -1.742e-21 -1.255e-15  3.964e-21  1.054e-15  1.256e-15 -1.080e-18  1.074e-15  5.602e-19  7.591e-21  2.998e-19  7.778e-20  1.069e-20  5.000e-07  6.000e-01  4.925e-02  6.960e-14  1.223e+00  1.000e+00  1.200e+00 
 1.000e+00 -5.259e-22 -1.029e-15  1.223e-21  1.054e-15  1.030e-15 -3.418e-19  1.074e-15  1.363e-19  3.955e-23  1.535e-21  3.202e-22  5.242e-23  5.000e-07  6.000e-01  5.283e-02  1.160e-13  1.360e+00  1.000e+00  2.000e+00 
 1.000e+00 -1.485e-22 -8.676e-16  3.449e-22  1.054e-15  8.677e-16 -1.291e-19  1.074e-15  3.118e-20  1.558e-25  5.838e-24  9.955e-25  1.926e-25  5.000e-07  6.000e-01  5.699e-02  1.740e-13  1.504e+00  1.000e+00  3.000e+00 
 1.000e+00 -1.942e-20 -2.407e-15  2.918e-20  1.053e-15  2.420e-15 -1.267e-17  1.074e-15  1.021e-17  3.101e-16  1.213e-14  5.759e-15  4.998e-16  5.000e-07  6.500e-01  4.249e-02 -2.899e-17  9.494e-01  1.000e+00  0.000e+00 
 1.000e+00 -7.840e-21 -1.750e-15  1.549e-20  1.053e-15  1.755e-15 -5.050e-18  1.074e-15  3.287e-18  5.105e-18  2.057e-16  7.448e-17  7.908e-18  5.000e-07  6.500e-01  4.512e-02  2.320e-14  1.055e+00  1.000e+00  4.000e-01 
 1.000e+00 -3.599e-21 -1.442e-15  7.749e-21  1.053e-15  1.444e-15 -2.218e-18  1.074e-15  1.281e-18  1.604e-19  6.520e-18  1.954e-18  2.398e-19  5.000e-07  6.500e-01  4.730e-02  4.640e-14  1.144e+00  1.000e+00  8.000e-01 
 1.000e+00 -1.800e-21 -1.255e-15  4.019e-21  1.053e-15  1.256e-15 -1.082e-18  1.074e-15  5.615e-19  7.656e-21  3.105e-19  8.053e-20  1.107e-20  5.000e-07  6.500e-01  4.925e-02  6.960e-14  1.223e+00  1.000e+00  1.200e+00 
 1.000e+00 -5.403e-22 -1.029e-15  1.239e-21  1.053e-15  1.030e-15 -3.423e-19  1.074e-15  1.367e-19  4.004e-23  1.593e-21  3.322e-22  5.440e-23  5.000e-07  6.500e-01  5.283e-02  1.160e-13  1.360e+00  1.000e+00  2.000e+00 
 1.000e+00 -1.520e-22 -8.676e-16  3.491e-22  1.053e-15  8.677e-16 -1.292e-19  1.074e-15  3.129e-20  1.584e-25  6.076e-24  1.036e-24  2.004e-25  5.000e-07  6.500e-01  5.699e-02  1.740e-13  1.504e+00  1.000e+00  3.000e+00 
 1.000e+00 -2.017e-20 -2.407e-15  2.976e-20  1.052e-15  2.420e-15 -1.268e-17  1.074e-15  1.022e-17  3.110e-16  1.251e-14  5.936e-15  5.153e-16  5.000e-07  7.000e-01  4.249e-02 -2.989e-17  9.491e-01  1.000e+00  0.000e+00 
 1.000e+00 -8.089e-21 -1.750e-15  1.571e-20  1.052e-15  1.755e-15 -5.056e-18  1.074e-15  3.293e-18  5.133e-18  2.124e-16  7.687e-17  8.164e-18  5.000e-07  7.000e-01  4.512e-02  2.320e-14  1.055e+00  1.000e+00  4.000e-01 
 1.000e+00 -3.698e-21 -1.442e-15  7.841e-21  1.052e-15  1.444e-15 -2.221e-18  1.074e-15  1.283e-18  1.617e-19  6.739e-18  2.019e-18  2.479e-19  5.000e-07  7.000e-01  4.730e-02  4.640e-14  1.144e+00  1.000e+00  8.000e-01 
