 v-sweep         out             load           
-1.00000000e+00  3.06162948e-04 -2.93821324e-07 
-9.90000000e-01  3.43349671e-04 -3.31322831e-07 
-9.80000000e-01  2.64128267e-04 -2.50703306e-07 
-9.70000000e-01  1.93716806e-04 -1.78676097e-07 
-9.60000000e-01  1.15252140e-04 -9.72513864e-08 
-9.50000000e-01  3.47016800e-04 -2.81841856e-07 
-9.40000000e-01  3.24903457e-04 -2.57731728e-07 
-9.30000000e-01  2.97300449e-04 -2.27842378e-07 
-9.20000000e-01  2.96444924e-04 -2.24838944e-07 
-9.10000000e-01  3.30006294e-04 -2.56376823e-07 
-9.00000000e-01  2.67295914e-05 -3.33368459e-09 
-8.90000000e-01  5.77147844e-05 -3.62768987e-08 
-8.80000000e-01  1.02900285e-04 -8.37595149e-08 
-8.70000000e-01  7.54906916e-05 -5.50615114e-08 
-8.60000000e-01  7.35145991e-05 -5.30332514e-08 
-8.50000000e-01  6.83580167e-05 -4.76951880e-08 
-8.40000000e-01  3.92146754e-04 -3.78145613e-07 
-8.30000000e-01  3.98126899e-04 -3.84303163e-07 
-8.20000000e-01  3.94782100e-04 -3.80952982e-07 
-8.10000000e-01  3.87395288e-04 -3.73435645e-07 
-8.00000000e-01  3.88617908e-04 -3.73921179e-07 
-7.90000000e-01  3.62743131e-04 -2.66661814e-07 
-7.80000000e-01  4.76361552e-05 -2.59074971e-08 
-7.70000000e-01  3.54075904e-04 -2.54339938e-07 
-7.60000000e-01  3.36788765e-04 -2.35448658e-07 
-7.50000000e-01  3.03546742e-04 -2.66161438e-07 
-7.40000000e-01  3.12008350e-04 -2.56074213e-07 
-7.30000000e-01  2.35593997e-04 -1.56029838e-07 
-7.20000000e-01 -7.71579866e-05  1.05073500e-07 
-7.10000000e-01 -1.05919043e-04  1.36810695e-07 
-7.00000000e-01  1.12339517e-04  9.87274543e-09 
-6.90000000e-01  5.36810882e-05  7.21172802e-08 
-6.80000000e-01  2.25505235e-04 -4.83374744e-07 
-6.70000000e-01  2.21860888e-04 -4.78035248e-07 
-6.60000000e-01  2.17036522e-04 -4.70008607e-07 
-6.50000000e-01  2.12287296e-04 -4.62102379e-07 
-6.40000000e-01 -6.78058860e-05  9.54510911e-08 
-6.30000000e-01 -8.99886681e-05  9.76494558e-08 
-6.20000000e-01 -9.52435407e-05  1.01680706e-07 
-6.10000000e-01 -9.94523936e-05  1.05043879e-07 
-6.00000000e-01 -1.06106181e-04  1.09577788e-07 
-5.90000000e-01 -1.13821553e-04  1.14367215e-07 
-5.80000000e-01 -1.20051344e-04  1.15274854e-07 
-5.70000000e-01 -1.14824492e-04  1.15979916e-07 
-5.60000000e-01  2.01246744e-04 -4.54083074e-07 
-5.50000000e-01  2.26602815e-04 -5.08309144e-07 
-5.40000000e-01  2.77866935e-05 -6.73562446e-09 
-5.30000000e-01  7.21807246e-05 -5.22416862e-08 
-5.20000000e-01  1.17481712e-04 -9.81012654e-08 
-5.10000000e-01  1.56281462e-04 -1.36684748e-07 
-5.00000000e-01  2.78554187e-08  2.78554184e-08 
-4.90000000e-01  2.25207792e-04 -2.04269931e-07 
-4.80000000e-01  2.60531992e-04 -2.38493418e-07 
-4.70000000e-01  2.96141659e-04 -2.72784581e-07 
-4.60000000e-01 -2.17814235e-04  1.75097142e-07 
-4.50000000e-01  3.47384758e-04 -3.21873750e-07 
-4.40000000e-01  3.61726616e-04 -3.35120807e-07 
-4.30000000e-01 -2.29777070e-04  1.90717552e-07 
-4.20000000e-01  3.74078094e-04 -3.45746901e-07 
-4.10000000e-01  3.76524219e-04 -3.47530182e-07 
-4.00000000e-01  3.76884212e-04 -3.47209170e-07 
-3.90000000e-01 -1.79165185e-06  2.53362279e-08 
-3.80000000e-01  3.74189369e-04 -3.43263942e-07 
-3.70000000e-01  3.72610420e-04 -3.41063071e-07 
-3.60000000e-01  3.69228600e-04 -3.37197487e-07 
-3.50000000e-01  1.00964193e-05  1.41433836e-08 
-3.40000000e-01 -2.26932362e-04  2.11779985e-07 
-3.30000000e-01 -2.25374789e-04  2.14607382e-07 
-3.20000000e-01  2.62963144e-05 -2.08577489e-09 
-3.10000000e-01  2.52984162e-05 -1.05749143e-09 
-3.00000000e-01  2.56247816e-05 -1.39731588e-09 
-2.90000000e-01  2.44141785e-05 -2.39174530e-10 
-2.80000000e-01  3.10635457e-05 -7.00563545e-09 
-2.70000000e-01 -2.19852857e-04  2.19874895e-07 
-2.60000000e-01 -2.21313795e-04  2.19639044e-07 
-2.50000000e-01 -1.77941365e-06  2.59646183e-08 
-2.40000000e-01  2.78553617e-08  2.78553614e-08 
-2.30000000e-01 -2.61681211e-04  3.60751059e-07 
-2.20000000e-01  2.57303287e-04 -3.38848574e-07 
-2.10000000e-01  1.07345635e-04 -8.29844543e-08 
-2.00000000e-01  1.23750670e-04 -9.90977924e-08 
-1.90000000e-01  1.22481975e-04 -9.77028611e-08 
-1.80000000e-01  1.21546569e-04 -9.66038341e-08 
-1.70000000e-01  1.25389464e-04 -1.00317282e-07 
-1.60000000e-01  1.41194686e-04 -1.15239930e-07 
-1.50000000e-01 -1.31916205e-05  1.39991813e-07 
-1.40000000e-01  3.82878963e-04 -3.42086400e-07 
-1.30000000e-01  1.44239426e-04 -1.75426704e-07 
-1.20000000e-01  1.67551486e-04 -2.11240552e-07 
-1.10000000e-01  1.69605241e-04 -2.10092214e-07 
-1.00000000e-01  4.24055885e-04 -3.75251715e-07 
-9.00000000e-02  4.49591107e-04 -3.94369439e-07 
-8.00000000e-02 -1.99490035e-04  2.54042388e-06 
-7.00000000e-02 -1.74253618e-04  5.46235030e-06 
-6.00000000e-02  3.96710403e-04  1.40154629e-06 
-5.00000000e-02  4.14586094e-04 -5.94492409e-07 
-4.00000000e-02 -3.24459277e-04  1.04904008e-07 
-3.00000000e-02 -3.92367722e-04  1.96592563e-07 
-2.00000000e-02 -3.94532562e-04  2.21075104e-07 
-1.00000000e-02 -3.83807233e-04  1.78704204e-07 
 7.52869989e-16  6.58114735e-06  4.09280764e-04 
 1.00000000e-02  9.97176105e-03  1.00604778e-02 
 2.00000000e-02  1.99146418e-02  2.00023053e-02 
 3.00000000e-02  2.98989950e-02  2.99860717e-02 
 4.00000000e-02  3.98946642e-02  3.99812129e-02 
 5.00000000e-02  4.98940324e-02  4.99801197e-02 
 6.00000000e-02  5.99808059e-02  5.99805137e-02 
 7.00000000e-02  6.99811738e-02  6.99810963e-02 
 8.00000000e-02  8.00664217e-02  7.99815699e-02 
 9.00000000e-02  9.00668279e-02  8.99821872e-02 
 1.00000000e-01  1.00067036e-01  9.99827486e-02 
 1.10000000e-01  1.10067137e-01  1.09983221e-01 
 1.20000000e-01  1.19900764e-01  1.19983624e-01 
 1.30000000e-01  1.29901269e-01  1.29983995e-01 
 1.40000000e-01  1.39901874e-01  1.39984323e-01 
 1.50000000e-01  1.49902338e-01  1.49984619e-01 
 1.60000000e-01  1.59902802e-01  1.59984861e-01 
 1.70000000e-01  1.69986217e-01  1.69985319e-01 
 1.80000000e-01  1.79903687e-01  1.79985310e-01 
 1.90000000e-01  1.89985755e-01  1.89985732e-01 
 2.00000000e-01  1.99986778e-01  1.99985960e-01 
 2.10000000e-01  2.09987122e-01  2.09986130e-01 
 2.20000000e-01  2.19986662e-01  2.19986296e-01 
 2.30000000e-01  2.29906420e-01  2.29986228e-01 
 2.40000000e-01  2.39987504e-01  2.39986602e-01 
 2.50000000e-01  2.49987647e-01  2.49986757e-01 
 2.60000000e-01  2.59987690e-01  2.59986871e-01 
 2.70000000e-01  2.69906725e-01  2.69986838e-01 
 2.80000000e-01  2.79906928e-01  2.79986948e-01 
 2.90000000e-01  2.89907132e-01  2.89987056e-01 
 3.00000000e-01  2.99907405e-01  2.99987183e-01 
 3.10000000e-01  3.09907715e-01  3.09987267e-01 
 3.20000000e-01  3.19907996e-01  3.19987381e-01 
 3.30000000e-01  3.29908732e-01  3.29987478e-01 
 3.40000000e-01  3.39908026e-01  3.39987537e-01 
 3.50000000e-01  3.49908950e-01  3.49987608e-01 
 3.60000000e-01  3.59987908e-01  3.59987864e-01 
 3.70000000e-01  3.69984687e-01  3.69987877e-01 
 3.80000000e-01  3.79988474e-01  3.79987936e-01 
 3.90000000e-01  3.89987692e-01  3.89987934e-01 
 4.00000000e-01  3.99987888e-01  3.99987932e-01 
 4.10000000e-01  4.09987911e-01  4.09987889e-01 
 4.20000000e-01  4.19987813e-01  4.19987842e-01 
 4.30000000e-01  4.29987693e-01  4.29987770e-01 
 4.40000000e-01  4.39987627e-01  4.39987673e-01 
 4.50000000e-01  4.49987540e-01  4.49987534e-01 
 4.60000000e-01  4.59988264e-01  4.59987388e-01 
 4.70000000e-01  4.70088079e-01  4.69987255e-01 
 4.80000000e-01  4.79986631e-01  4.79986961e-01 
 4.90000000e-01  4.89986721e-01  4.89986699e-01 
 5.00000000e-01  5.00093380e-01  4.99986487e-01 
 5.10000000e-01  5.10093921e-01  5.09986171e-01 
 5.20000000e-01  5.20093904e-01  5.19985846e-01 
 5.30000000e-01  5.30093810e-01  5.29985499e-01 
 5.40000000e-01  5.40093238e-01  5.39985160e-01 
 5.50000000e-01  5.50092209e-01  5.49984848e-01 
 5.60000000e-01  5.59985186e-01  5.59984545e-01 
 5.70000000e-01  5.70089387e-01  5.69984381e-01 
 5.80000000e-01  5.80087133e-01  5.79984249e-01 
 5.90000000e-01  5.89984146e-01  5.89984180e-01 
 6.00000000e-01  6.00081758e-01  5.99984278e-01 
 6.10000000e-01  6.09984560e-01  6.09984469e-01 
 6.20000000e-01  6.19985551e-01  6.19984833e-01 
 6.30000000e-01  6.29986072e-01  6.29985357e-01 
 6.40000000e-01  6.39986147e-01  6.39986054e-01 
 6.50000000e-01  6.49986670e-01  6.49986871e-01 
 6.60000000e-01  6.59986428e-01  6.59987831e-01 
 6.70000000e-01  6.69988316e-01  6.69988909e-01 
 6.80000000e-01  6.79990189e-01  6.79990096e-01 
 6.90000000e-01  6.89992239e-01  6.89991352e-01 
 7.00000000e-01  6.99992651e-01  6.99992625e-01 
 7.10000000e-01  7.09934130e-01  7.09994025e-01 
 7.20000000e-01  7.19995188e-01  7.19995240e-01 
 7.30000000e-01  7.29996439e-01  7.29996482e-01 
 7.40000000e-01  7.39998034e-01  7.39997682e-01 
 7.50000000e-01  7.49998919e-01  7.49998788e-01 
 7.60000000e-01  7.59999653e-01  7.59999816e-01 
 7.70000000e-01  7.70000600e-01  7.70000719e-01 
 7.80000000e-01  7.80001432e-01  7.80001516e-01 
 7.90000000e-01  7.90002167e-01  7.90002245e-01 
 8.00000000e-01  8.00002776e-01  8.00002860e-01 
 8.10000000e-01  8.10003306e-01  8.10003373e-01 
 8.20000000e-01  8.20003844e-01  8.20003825e-01 
 8.30000000e-01  8.30004158e-01  8.30004181e-01 
 8.40000000e-01  8.40004477e-01  8.40004494e-01 
 8.50000000e-01  8.50004840e-01  8.50004748e-01 
 8.60000000e-01  8.60004960e-01  8.60004944e-01 
 8.70000000e-01  8.70005162e-01  8.70005115e-01 
 8.80000000e-01  8.80005469e-01  8.80005241e-01 
 8.90000000e-01  8.90005434e-01  8.90005340e-01 
 9.00000000e-01  9.00005264e-01  9.00005412e-01 
 9.10000000e-01  9.10005442e-01  9.10005462e-01 
 9.20000000e-01  9.20005587e-01  9.20005495e-01 
 9.30000000e-01  9.30005477e-01  9.30005510e-01 
 9.40000000e-01  9.40005703e-01  9.40005522e-01 
 9.50000000e-01  9.50005525e-01  9.50005516e-01 
 9.60000000e-01  9.60005492e-01  9.60005506e-01 
 9.70000000e-01  9.70005497e-01  9.70005484e-01 
 9.80000000e-01  9.80005571e-01  9.80005473e-01 
 9.90000000e-01  9.90005460e-01  9.90005438e-01 
 1.00000000e+00  1.00000523e+00  1.00000542e+00 
 1.01000000e+00  1.01000532e+00  1.01000539e+00 
 1.02000000e+00  1.02000529e+00  1.02000536e+00 
 1.03000000e+00  1.03000518e+00  1.03000532e+00 
 1.04000000e+00  1.04000525e+00  1.04000529e+00 
 1.05000000e+00  1.05000511e+00  1.05000525e+00 
 1.06000000e+00  1.06000508e+00  1.06000522e+00 
 1.07000000e+00  1.07000517e+00  1.07000518e+00 
 1.08000000e+00  1.08000515e+00  1.08000514e+00 
 1.09000000e+00  1.09000495e+00  1.09000510e+00 
 1.10000000e+00  1.10000508e+00  1.10000507e+00 
 1.11000000e+00  1.11000490e+00  1.11000503e+00 
 1.12000000e+00  1.12000480e+00  1.12000501e+00 
 1.13000000e+00  1.13000498e+00  1.13000497e+00 
 1.14000000e+00  1.14000485e+00  1.14000493e+00 
 1.15000000e+00  1.15000471e+00  1.15000489e+00 
 1.16000000e+00  1.16000473e+00  1.16000486e+00 
 1.17000000e+00  1.17000484e+00  1.17000483e+00 
 1.18000000e+00  1.17991235e+00  1.18000534e+00 
 1.19000000e+00  1.19000477e+00  1.19000476e+00 
 1.20000000e+00  1.20000475e+00  1.20000473e+00 
 1.21000000e+00  1.21000471e+00  1.21000470e+00 
 1.22000000e+00  1.22000468e+00  1.22000467e+00 
 1.23000000e+00  1.22990432e+00  1.23000531e+00 
 1.24000000e+00  1.24000445e+00  1.24000459e+00 
 1.25000000e+00  1.25000468e+00  1.25000457e+00 
 1.26000000e+00  1.26000454e+00  1.26000453e+00 
 1.27000000e+00  1.27000450e+00  1.27000450e+00 
 1.28000000e+00  1.28000445e+00  1.28000447e+00 
 1.29000000e+00  1.29000438e+00  1.29000444e+00 
 1.30000000e+00  1.30000446e+00  1.30000440e+00 
 1.31000000e+00  1.31000436e+00  1.31000437e+00 
 1.32000000e+00  1.32000419e+00  1.32000434e+00 
 1.33000000e+00  1.33000429e+00  1.33000432e+00 
 1.34000000e+00  1.34000435e+00  1.34000434e+00 
 1.35000000e+00  1.35000424e+00  1.35000427e+00 
 1.36000000e+00  1.36000418e+00  1.36000423e+00 
 1.37000000e+00  1.37000431e+00  1.37000421e+00 
 1.38000000e+00  1.38000419e+00  1.38000418e+00 
 1.39000000e+00  1.39000417e+00  1.39000416e+00 
 1.40000000e+00  1.40000396e+00  1.40000413e+00 
 1.41000000e+00  1.41000412e+00  1.41000411e+00 
 1.42000000e+00  1.42000417e+00  1.42000408e+00 
 1.43000000e+00  1.43000414e+00  1.43000405e+00 
 1.44000000e+00  1.44000407e+00  1.44000404e+00 
 1.45000000e+00  1.45000403e+00  1.45000401e+00 
 1.46000000e+00  1.46000399e+00  1.46000398e+00 
 1.47000000e+00  1.47000398e+00  1.47000397e+00 
 1.48000000e+00  1.48000404e+00  1.48000394e+00 
 1.49000000e+00  1.49000397e+00  1.49000393e+00 
 1.50000000e+00  1.50000389e+00  1.50000391e+00 
 1.51000000e+00  1.51000393e+00  1.51000388e+00 
 1.52000000e+00  1.52000393e+00  1.52000385e+00 
 1.53000000e+00  1.53000386e+00  1.53000384e+00 
 1.54000000e+00  1.54000383e+00  1.54000382e+00 
 1.55000000e+00  1.55000384e+00  1.55000381e+00 
 1.56000000e+00  1.56000399e+00  1.56000378e+00 
 1.57000000e+00  1.57000395e+00  1.57000377e+00 
 1.58000000e+00  1.58000378e+00  1.58000376e+00 
 1.59000000e+00  1.59000375e+00  1.59000373e+00 
 1.60000000e+00  1.60000378e+00  1.60000373e+00 
 1.61000000e+00  1.61000369e+00  1.61000370e+00 
 1.62000000e+00  1.62000374e+00  1.62000369e+00 
 1.63000000e+00  1.63000369e+00  1.63000367e+00 
 1.64000000e+00  1.64000367e+00  1.64000365e+00 
 1.65000000e+00  1.65000365e+00  1.65000364e+00 
 1.66000000e+00  1.66000366e+00  1.66000363e+00 
 1.67000000e+00  1.67000367e+00  1.67000361e+00 
 1.68000000e+00  1.68000365e+00  1.68000360e+00 
 1.69000000e+00  1.69000362e+00  1.69000357e+00 
 1.70000000e+00  1.70000358e+00  1.70000356e+00 
 1.71000000e+00  1.71000358e+00  1.71000355e+00 
 1.72000000e+00  1.72000357e+00  1.72000354e+00 
 1.73000000e+00  1.73000332e+00  1.73000353e+00 
 1.74000000e+00  1.74000352e+00  1.74000351e+00 
 1.75000000e+00  1.75000333e+00  1.75000350e+00 
 1.76000000e+00  1.76000350e+00  1.76000350e+00 
 1.77000000e+00  1.77000344e+00  1.77000349e+00 
 1.78000000e+00  1.78000327e+00  1.78000348e+00 
 1.79000000e+00  1.79000344e+00  1.79000346e+00 
 1.80000000e+00  1.80009500e+00  1.80000409e+00 
 1.81000000e+00  1.81000351e+00  1.81000344e+00 
 1.82000000e+00  1.82000345e+00  1.82000343e+00 
 1.83000000e+00  1.83000347e+00  1.83000343e+00 
 1.84000000e+00  1.84000339e+00  1.84000341e+00 
 1.85000000e+00  1.85000343e+00  1.85000340e+00 
 1.86000000e+00  1.86000342e+00  1.86000340e+00 
 1.87000000e+00  1.87000340e+00  1.87000339e+00 
 1.88000000e+00  1.88000343e+00  1.88000339e+00 
 1.89000000e+00  1.89000341e+00  1.89000338e+00 
 1.90000000e+00  1.90000341e+00  1.90000337e+00 
 1.91000000e+00  1.91000325e+00  1.91000336e+00 
 1.92000000e+00  1.92000325e+00  1.92000336e+00 
 1.93000000e+00  1.93000339e+00  1.93000336e+00 
 1.94000000e+00  1.94000338e+00  1.94000336e+00 
 1.95000000e+00  1.95000338e+00  1.95000335e+00 
 1.96000000e+00  1.96000333e+00  1.96000335e+00 
 1.97000000e+00  1.97000332e+00  1.97000334e+00 
 1.98000000e+00  1.98000335e+00  1.98000334e+00 
 1.99000000e+00  1.99000333e+00  1.99000334e+00 
 2.00000000e+00  2.00000331e+00  2.00000334e+00 
 2.01000000e+00  2.01000330e+00  2.01000334e+00 
 2.02000000e+00  2.02000346e+00  2.02000334e+00 
 2.03000000e+00  2.03000339e+00  2.03000333e+00 
 2.04000000e+00  2.04000342e+00  2.04000333e+00 
 2.05000000e+00  2.05000340e+00  2.05000333e+00 
 2.06000000e+00  2.06000336e+00  2.06000334e+00 
 2.07000000e+00  2.07000341e+00  2.07000334e+00 
 2.08000000e+00  2.08000342e+00  2.08000333e+00 
 2.09000000e+00  2.09000339e+00  2.09000332e+00 
 2.10000000e+00  2.10000337e+00  2.10000332e+00 
 2.11000000e+00  2.11000339e+00  2.11000334e+00 
 2.12000000e+00  2.12000343e+00  2.12000333e+00 
 2.13000000e+00  2.13000339e+00  2.13000333e+00 
 2.14000000e+00  2.14000336e+00  2.14000334e+00 
 2.15000000e+00  2.15000343e+00  2.15000333e+00 
 2.16000000e+00  2.16009825e+00  2.16000300e+00 
 2.17000000e+00  2.17000337e+00  2.17000335e+00 
 2.18000000e+00  2.18000333e+00  2.18000335e+00 
 2.19000000e+00  2.19000334e+00  2.19000335e+00 
 2.20000000e+00  2.20000332e+00  2.20000335e+00 
 2.21000000e+00  2.21000341e+00  2.21000335e+00 
 2.22000000e+00  2.22000335e+00  2.22000336e+00 
 2.23000000e+00  2.23000343e+00  2.23000336e+00 
 2.24000000e+00  2.24000339e+00  2.24000337e+00 
 2.25000000e+00  2.25000335e+00  2.25000337e+00 
 2.26000000e+00  2.26000348e+00  2.26000338e+00 
 2.27000000e+00  2.27000341e+00  2.27000338e+00 
 2.28000000e+00  2.28000351e+00  2.28000338e+00 
 2.29000000e+00  2.29000348e+00  2.29000339e+00 
 2.30000000e+00  2.30000347e+00  2.30000341e+00 
 2.31000000e+00  2.31000348e+00  2.31000341e+00 
 2.32000000e+00  2.32000348e+00  2.32000341e+00 
 2.33000000e+00  2.33000349e+00  2.33000342e+00 
 2.34000000e+00  2.34000349e+00  2.34000343e+00 
 2.35000000e+00  2.35010932e+00  2.35000369e+00 
 2.36000000e+00  2.36000341e+00  2.36000344e+00 
 2.37000000e+00  2.37000346e+00  2.37000344e+00 
 2.38000000e+00  2.38000349e+00  2.38000346e+00 
 2.39000000e+00  2.38990198e+00  2.39000382e+00 
 2.40000000e+00  2.40000345e+00  2.40000347e+00 
 2.41000000e+00  2.41000347e+00  2.41000348e+00 
 2.42000000e+00  2.42000350e+00  2.42000349e+00 
 2.43000000e+00  2.43000354e+00  2.43000350e+00 
 2.44000000e+00  2.44000355e+00  2.44000351e+00 
 2.45000000e+00  2.45000353e+00  2.45000351e+00 
 2.46000000e+00  2.46000356e+00  2.46000353e+00 
 2.47000000e+00  2.47000352e+00  2.47000354e+00 
 2.48000000e+00  2.48000356e+00  2.48000355e+00 
 2.49000000e+00  2.49010212e+00  2.49000396e+00 
 2.50000000e+00  2.49990540e+00  2.50000398e+00 
 2.51000000e+00  2.51000361e+00  2.51000358e+00 
 2.52000000e+00  2.52000360e+00  2.52000358e+00 
 2.53000000e+00  2.53000365e+00  2.53000360e+00 
 2.54000000e+00  2.54000366e+00  2.54000362e+00 
 2.55000000e+00  2.54990678e+00  2.55000404e+00 
 2.56000000e+00  2.56000377e+00  2.56000363e+00 
 2.57000000e+00  2.57000367e+00  2.57000364e+00 
 2.58000000e+00  2.58000376e+00  2.58000366e+00 
 2.59000000e+00  2.59000373e+00  2.59000366e+00 
 2.60000000e+00  2.60000379e+00  2.60000369e+00 
 2.61000000e+00  2.61000385e+00  2.61000370e+00 
 2.62000000e+00  2.62000373e+00  2.62000372e+00 
 2.63000000e+00  2.63000376e+00  2.63000373e+00 
 2.64000000e+00  2.64000370e+00  2.64000374e+00 
 2.65000000e+00  2.65000378e+00  2.65000376e+00 
 2.66000000e+00  2.66000368e+00  2.66000377e+00 
 2.67000000e+00  2.67000370e+00  2.67000379e+00 
 2.68000000e+00  2.68000383e+00  2.68000380e+00 
 2.69000000e+00  2.69000384e+00  2.69000381e+00 
 2.70000000e+00  2.70000385e+00  2.70000383e+00 
 2.71000000e+00  2.71010333e+00  2.71000425e+00 
 2.72000000e+00  2.72000385e+00  2.72000385e+00 
 2.73000000e+00  2.73000377e+00  2.73000387e+00 
 2.74000000e+00  2.74000390e+00  2.74000387e+00 
 2.75000000e+00  2.75000398e+00  2.75000391e+00 
 2.76000000e+00  2.76000395e+00  2.76000392e+00 
 2.77000000e+00  2.77000394e+00  2.77000393e+00 
 2.78000000e+00  2.78000395e+00  2.78000394e+00 
 2.79000000e+00  2.79000399e+00  2.79000396e+00 
 2.80000000e+00  2.80000406e+00  2.80000398e+00 
 2.81000000e+00  2.81000404e+00  2.81000400e+00 
 2.82000000e+00  2.82000403e+00  2.82000401e+00 
 2.83000000e+00  2.83000404e+00  2.83000402e+00 
 2.84000000e+00  2.84010488e+00  2.84000445e+00 
 2.85000000e+00  2.85000410e+00  2.85000407e+00 
 2.86000000e+00  2.86000409e+00  2.86000407e+00 
 2.87000000e+00  2.87010512e+00  2.87000449e+00 
 2.88000000e+00  2.88010519e+00  2.88000452e+00 
 2.89000000e+00  2.89010528e+00  2.89000453e+00 
 2.90000000e+00  2.90000421e+00  2.90000413e+00 
 2.91000000e+00  2.91000419e+00  2.91000416e+00 
 2.92000000e+00  2.92010549e+00  2.92000458e+00 
 2.93000000e+00  2.93000423e+00  2.93000420e+00 
 2.94000000e+00  2.94000426e+00  2.94000422e+00 
 2.95000000e+00  2.95000417e+00  2.95000423e+00 
 2.96000000e+00  2.96000429e+00  2.96000426e+00 
 2.97000000e+00  2.97000438e+00  2.97000428e+00 
 2.98000000e+00  2.98000433e+00  2.98000430e+00 
 2.99000000e+00  2.99000435e+00  2.99000432e+00 
 3.00000000e+00  3.00000437e+00  3.00000434e+00 
 3.01000000e+00  3.01000455e+00  3.01000436e+00 
 3.02000000e+00  3.02000441e+00  3.02000438e+00 
 3.03000000e+00  3.02990344e+00  3.03000476e+00 
 3.04000000e+00  3.04000442e+00  3.04000442e+00 
 3.05000000e+00  3.05000444e+00  3.05000443e+00 
 3.06000000e+00  3.05990334e+00  3.06000482e+00 
