 v-sweep       voutval       vloadval      ir1           ir2           ivdd          ivdda         ivddh         ndata         vd9           vd8           vd7           vd6           vd5           vd4           vd3           vd2           vd1           vd0          
 5.000000e+00  3.156722e-04  3.156722e-04  5.131501e-07  1.018756e-06  2.343533e-10  9.096424e-06  9.053571e-10  0.000000e+00  0.000000e+00  0.000000e+00  0.000000e+00  0.000000e+00  0.000000e+00  0.000000e+00  0.000000e+00  0.000000e+00  0.000000e+00  0.000000e+00 
 5.000000e+00  5.139347e-02  5.139347e-02  5.131501e-07  1.018756e-06  2.343516e-10  9.195868e-06  9.041847e-10  1.000000e+00  0.000000e+00  0.000000e+00  0.000000e+00  0.000000e+00  0.000000e+00  0.000000e+00  0.000000e+00  0.000000e+00  0.000000e+00  1.800000e+00 
 5.000000e+00  9.731672e-02  9.731672e-02  5.131501e-07  1.018756e-06  2.343553e-10  9.220509e-06  9.029661e-10  2.000000e+00  0.000000e+00  0.000000e+00  0.000000e+00  0.000000e+00  0.000000e+00  0.000000e+00  0.000000e+00  0.000000e+00  1.800000e+00  0.000000e+00 
 5.000000e+00  1.385450e-01  1.385450e-01  5.131501e-07  1.018756e-06  2.343544e-10  9.227930e-06  9.020602e-10  3.000000e+00  0.000000e+00  0.000000e+00  0.000000e+00  0.000000e+00  0.000000e+00  0.000000e+00  0.000000e+00  0.000000e+00  1.800000e+00  1.800000e+00 
 5.000000e+00  1.764932e-01  1.764932e-01  5.131501e-07  1.018756e-06  2.343511e-10  9.231230e-06  9.011826e-10  4.000000e+00  0.000000e+00  0.000000e+00  0.000000e+00  0.000000e+00  0.000000e+00  0.000000e+00  0.000000e+00  1.800000e+00  0.000000e+00  0.000000e+00 
 5.000000e+00  2.120952e-01  2.120952e-01  5.131501e-07  1.018756e-06  2.343526e-10  9.233147e-06  9.002980e-10  5.000000e+00  0.000000e+00  0.000000e+00  0.000000e+00  0.000000e+00  0.000000e+00  0.000000e+00  0.000000e+00  1.800000e+00  0.000000e+00  1.800000e+00 
 5.000000e+00  2.453571e-01  2.453571e-01  5.131501e-07  1.018756e-06  2.343553e-10  9.234464e-06  8.991221e-10  6.000000e+00  0.000000e+00  0.000000e+00  0.000000e+00  0.000000e+00  0.000000e+00  0.000000e+00  0.000000e+00  1.800000e+00  1.800000e+00  0.000000e+00 
 5.000000e+00  2.749786e-01  2.749786e-01  5.131501e-07  1.018756e-06  2.343561e-10  9.235474e-06  8.989586e-10  7.000000e+00  0.000000e+00  0.000000e+00  0.000000e+00  0.000000e+00  0.000000e+00  0.000000e+00  0.000000e+00  1.800000e+00  1.800000e+00  1.800000e+00 
 5.000000e+00  3.031961e-01  3.031961e-01  5.131501e-07  1.018756e-06  2.343547e-10  9.236421e-06  8.962763e-10  8.000000e+00  0.000000e+00  0.000000e+00  0.000000e+00  0.000000e+00  0.000000e+00  0.000000e+00  1.800000e+00  0.000000e+00  0.000000e+00  0.000000e+00 
 5.000000e+00  3.300074e-01  3.300074e-01  5.131501e-07  1.018756e-06  2.343536e-10  9.237418e-06  8.956440e-10  9.000000e+00  0.000000e+00  0.000000e+00  0.000000e+00  0.000000e+00  0.000000e+00  0.000000e+00  1.800000e+00  0.000000e+00  0.000000e+00  1.800000e+00 
 5.000000e+00  3.554151e-01  3.554151e-01  5.131501e-07  1.018756e-06  2.343536e-10  9.238572e-06  8.955942e-10  1.000000e+01  0.000000e+00  0.000000e+00  0.000000e+00  0.000000e+00  0.000000e+00  0.000000e+00  1.800000e+00  0.000000e+00  1.800000e+00  0.000000e+00 
 5.000000e+00  3.798862e-01  3.798862e-01  5.131501e-07  1.018756e-06  2.343562e-10  9.240012e-06  8.945106e-10  1.100000e+01  0.000000e+00  0.000000e+00  0.000000e+00  0.000000e+00  0.000000e+00  0.000000e+00  1.800000e+00  0.000000e+00  1.800000e+00  1.800000e+00 
 5.000000e+00  4.034205e-01  4.034205e-01  5.131501e-07  1.018756e-06  2.343556e-10  9.241884e-06  8.939600e-10  1.200000e+01  0.000000e+00  0.000000e+00  0.000000e+00  0.000000e+00  0.000000e+00  0.000000e+00  1.800000e+00  1.800000e+00  0.000000e+00  0.000000e+00 
 5.000000e+00  4.260183e-01  4.260183e-01  5.131501e-07  1.018756e-06  2.343565e-10  9.244350e-06  8.929581e-10  1.300000e+01  0.000000e+00  0.000000e+00  0.000000e+00  0.000000e+00  0.000000e+00  0.000000e+00  1.800000e+00  1.800000e+00  0.000000e+00  1.800000e+00 
 5.000000e+00  4.481463e-01  4.481463e-01  5.131501e-07  1.018756e-06  2.343546e-10  9.247685e-06  8.912706e-10  1.400000e+01  0.000000e+00  0.000000e+00  0.000000e+00  0.000000e+00  0.000000e+00  0.000000e+00  1.800000e+00  1.800000e+00  1.800000e+00  0.000000e+00 
 5.000000e+00  4.693405e-01  4.693405e-01  5.131501e-07  1.018756e-06  2.343551e-10  9.252072e-06  8.909046e-10  1.500000e+01  0.000000e+00  0.000000e+00  0.000000e+00  0.000000e+00  0.000000e+00  0.000000e+00  1.800000e+00  1.800000e+00  1.800000e+00  1.800000e+00 
 5.000000e+00  4.900631e-01  4.900631e-01  5.131501e-07  1.018756e-06  2.350725e-10  9.257897e-06  8.580415e-10  1.600000e+01  0.000000e+00  0.000000e+00  0.000000e+00  0.000000e+00  0.000000e+00  1.800000e+00  0.000000e+00  0.000000e+00  0.000000e+00  0.000000e+00 
 5.000000e+00  5.098508e-01  5.098508e-01  5.131501e-07  1.018756e-06  2.350724e-10  9.265343e-06  8.578674e-10  1.700000e+01  0.000000e+00  0.000000e+00  0.000000e+00  0.000000e+00  0.000000e+00  1.800000e+00  0.000000e+00  0.000000e+00  0.000000e+00  1.800000e+00 
 5.000000e+00  5.296385e-01  5.296385e-01  5.131501e-07  1.018756e-06  2.350731e-10  9.275165e-06  8.571213e-10  1.800000e+01  0.000000e+00  0.000000e+00  0.000000e+00  0.000000e+00  0.000000e+00  1.800000e+00  0.000000e+00  0.000000e+00  1.800000e+00  0.000000e+00 
 5.000000e+00  5.484896e-01  5.484896e-01  5.131501e-07  1.018756e-06  2.350773e-10  9.287286e-06  8.569117e-10  1.900000e+01  0.000000e+00  0.000000e+00  0.000000e+00  0.000000e+00  0.000000e+00  1.800000e+00  0.000000e+00  0.000000e+00  1.800000e+00  1.800000e+00 
 5.000000e+00  5.673408e-01  5.673408e-01  5.131501e-07  1.018756e-06  2.350734e-10  9.302700e-06  8.566453e-10  2.000000e+01  0.000000e+00  0.000000e+00  0.000000e+00  0.000000e+00  0.000000e+00  1.800000e+00  0.000000e+00  1.800000e+00  0.000000e+00  0.000000e+00 
 5.000000e+00  5.852555e-01  5.852555e-01  5.131501e-07  1.018756e-06  2.350753e-10  9.320951e-06  8.566168e-10  2.100000e+01  0.000000e+00  0.000000e+00  0.000000e+00  0.000000e+00  0.000000e+00  1.800000e+00  0.000000e+00  1.800000e+00  0.000000e+00  1.800000e+00 
 5.000000e+00  6.031702e-01  6.031702e-01  5.131501e-07  1.018756e-06  2.350743e-10  9.343204e-06  8.555048e-10  2.200000e+01  0.000000e+00  0.000000e+00  0.000000e+00  0.000000e+00  0.000000e+00  1.800000e+00  0.000000e+00  1.800000e+00  1.800000e+00  0.000000e+00 
 5.000000e+00  6.189782e-01  6.189782e-01  5.131501e-07  1.018756e-06  2.350745e-10  9.366511e-06  8.554445e-10  2.300000e+01  0.000000e+00  0.000000e+00  0.000000e+00  0.000000e+00  0.000000e+00  1.800000e+00  0.000000e+00  1.800000e+00  1.800000e+00  1.800000e+00 
 5.000000e+00  6.347860e-01  6.347860e-01  5.131501e-07  1.018756e-06  2.350743e-10  9.393459e-06  8.535118e-10  2.400000e+01  0.000000e+00  0.000000e+00  0.000000e+00  0.000000e+00  0.000000e+00  1.800000e+00  1.800000e+00  0.000000e+00  0.000000e+00  0.000000e+00 
 5.000000e+00  6.496572e-01  6.496572e-01  5.131501e-07  1.018756e-06  2.350746e-10  9.422208e-06  8.526804e-10  2.500000e+01  0.000000e+00  0.000000e+00  0.000000e+00  0.000000e+00  0.000000e+00  1.800000e+00  1.800000e+00  0.000000e+00  0.000000e+00  1.800000e+00 
 5.000000e+00  6.645286e-01  6.645286e-01  5.131501e-07  1.018756e-06  2.350740e-10  9.454179e-06  8.525064e-10  2.600000e+01  0.000000e+00  0.000000e+00  0.000000e+00  0.000000e+00  0.000000e+00  1.800000e+00  1.800000e+00  0.000000e+00  1.800000e+00  0.000000e+00 
 5.000000e+00  6.789324e-01  6.789324e-01  5.131501e-07  1.018756e-06  2.350734e-10  9.488013e-06  8.522719e-10  2.700000e+01  0.000000e+00  0.000000e+00  0.000000e+00  0.000000e+00  0.000000e+00  1.800000e+00  1.800000e+00  0.000000e+00  1.800000e+00  1.800000e+00 
 5.000000e+00  6.933362e-01  6.933362e-01  5.131501e-07  1.018756e-06  2.350750e-10  9.524303e-06  8.495434e-10  2.800000e+01  0.000000e+00  0.000000e+00  0.000000e+00  0.000000e+00  0.000000e+00  1.800000e+00  1.800000e+00  1.800000e+00  0.000000e+00  0.000000e+00 
 5.000000e+00  7.072724e-01  7.072724e-01  5.131501e-07  1.018756e-06  2.350751e-10  9.561265e-06  8.493835e-10  2.900000e+01  0.000000e+00  0.000000e+00  0.000000e+00  0.000000e+00  0.000000e+00  1.800000e+00  1.800000e+00  1.800000e+00  0.000000e+00  1.800000e+00 
 5.000000e+00  7.212086e-01  7.212086e-01  5.131501e-07  1.018756e-06  2.350783e-10  9.599444e-06  8.493231e-10  3.000000e+01  0.000000e+00  0.000000e+00  0.000000e+00  0.000000e+00  0.000000e+00  1.800000e+00  1.800000e+00  1.800000e+00  1.800000e+00  0.000000e+00 
 5.000000e+00  7.346770e-01  7.346770e-01  5.131501e-07  1.018756e-06  2.350766e-10  9.636842e-06  8.491277e-10  3.100000e+01  0.000000e+00  0.000000e+00  0.000000e+00  0.000000e+00  0.000000e+00  1.800000e+00  1.800000e+00  1.800000e+00  1.800000e+00  1.800000e+00 
 5.000000e+00  7.481430e-01  7.481430e-01  5.131501e-07  1.018756e-06  2.350761e-10  9.674021e-06  8.143886e-10  3.200000e+01  0.000000e+00  0.000000e+00  0.000000e+00  0.000000e+00  1.800000e+00  0.000000e+00  0.000000e+00  0.000000e+00  0.000000e+00  0.000000e+00 
 5.000000e+00  7.611419e-01  7.611419e-01  5.131501e-07  1.018756e-06  2.350773e-10  9.709039e-06  8.138059e-10  3.300000e+01  0.000000e+00  0.000000e+00  0.000000e+00  0.000000e+00  1.800000e+00  0.000000e+00  0.000000e+00  0.000000e+00  0.000000e+00  1.800000e+00 
 5.000000e+00  7.741408e-01  7.741408e-01  5.131501e-07  1.018756e-06  2.350763e-10  9.742587e-06  8.139125e-10  3.400000e+01  0.000000e+00  0.000000e+00  0.000000e+00  0.000000e+00  1.800000e+00  0.000000e+00  0.000000e+00  0.000000e+00  1.800000e+00  0.000000e+00 
 5.000000e+00  7.871396e-01  7.871396e-01  5.131501e-07  1.018756e-06  2.350773e-10  9.774108e-06  8.135111e-10  3.500000e+01  0.000000e+00  0.000000e+00  0.000000e+00  0.000000e+00  1.800000e+00  0.000000e+00  0.000000e+00  0.000000e+00  1.800000e+00  1.800000e+00 
 5.000000e+00  7.996703e-01  7.996703e-01  5.131501e-07  1.018756e-06  2.350738e-10  9.802159e-06  8.135359e-10  3.600000e+01  0.000000e+00  0.000000e+00  0.000000e+00  0.000000e+00  1.800000e+00  0.000000e+00  0.000000e+00  1.800000e+00  0.000000e+00  0.000000e+00 
 5.000000e+00  8.117331e-01  8.117331e-01  5.131501e-07  1.018756e-06  2.350756e-10  9.826713e-06  8.125412e-10  3.700000e+01  0.000000e+00  0.000000e+00  0.000000e+00  0.000000e+00  1.800000e+00  0.000000e+00  0.000000e+00  1.800000e+00  0.000000e+00  1.800000e+00 
 5.000000e+00  8.242636e-01  8.242636e-01  5.131501e-07  1.018756e-06  2.350772e-10  9.849504e-06  8.124488e-10  3.800000e+01  0.000000e+00  0.000000e+00  0.000000e+00  0.000000e+00  1.800000e+00  0.000000e+00  0.000000e+00  1.800000e+00  1.800000e+00  0.000000e+00 
 5.000000e+00  8.363262e-01  8.363262e-01  5.131501e-07  1.018756e-06  2.350758e-10  9.868767e-06  8.120864e-10  3.900000e+01  0.000000e+00  0.000000e+00  0.000000e+00  0.000000e+00  1.800000e+00  0.000000e+00  0.000000e+00  1.800000e+00  1.800000e+00  1.800000e+00 
 5.000000e+00  8.479190e-01  8.479190e-01  5.131501e-07  1.018756e-06  2.350761e-10  9.884848e-06  8.056560e-10  4.000000e+01  0.000000e+00  0.000000e+00  0.000000e+00  0.000000e+00  1.800000e+00  0.000000e+00  1.800000e+00  0.000000e+00  0.000000e+00  0.000000e+00 
 5.000000e+00  8.599812e-01  8.599812e-01  5.131501e-07  1.018756e-06  2.350759e-10  9.899155e-06  8.053007e-10  4.100000e+01  0.000000e+00  0.000000e+00  0.000000e+00  0.000000e+00  1.800000e+00  0.000000e+00  1.800000e+00  0.000000e+00  0.000000e+00  1.800000e+00 
 5.000000e+00  8.715742e-01  8.715742e-01  5.131501e-07  1.018756e-06  2.350752e-10  9.910744e-06  8.048993e-10  4.200000e+01  0.000000e+00  0.000000e+00  0.000000e+00  0.000000e+00  1.800000e+00  0.000000e+00  1.800000e+00  0.000000e+00  1.800000e+00  0.000000e+00 
 5.000000e+00  8.826992e-01  8.826992e-01  5.131501e-07  1.018756e-06  2.350755e-10  9.920049e-06  8.047820e-10  4.300000e+01  0.000000e+00  0.000000e+00  0.000000e+00  0.000000e+00  1.800000e+00  0.000000e+00  1.800000e+00  0.000000e+00  1.800000e+00  1.800000e+00 
 5.000000e+00  8.942920e-01  8.942920e-01  5.131501e-07  1.018756e-06  2.350757e-10  9.928046e-06  8.035457e-10  4.400000e+01  0.000000e+00  0.000000e+00  0.000000e+00  0.000000e+00  1.800000e+00  0.000000e+00  1.800000e+00  1.800000e+00  0.000000e+00  0.000000e+00 
 5.000000e+00  9.054169e-01  9.054169e-01  5.131501e-07  1.018756e-06  2.350728e-10  9.934287e-06  8.036203e-10  4.500000e+01  0.000000e+00  0.000000e+00  0.000000e+00  0.000000e+00  1.800000e+00  0.000000e+00  1.800000e+00  1.800000e+00  0.000000e+00  1.800000e+00 
 5.000000e+00  9.165417e-01  9.165417e-01  5.131501e-07  1.018756e-06  2.350806e-10  9.939302e-06  8.034462e-10  4.600000e+01  0.000000e+00  0.000000e+00  0.000000e+00  0.000000e+00  1.800000e+00  0.000000e+00  1.800000e+00  1.800000e+00  1.800000e+00  0.000000e+00 
 5.000000e+00  9.276665e-01  9.276665e-01  5.131501e-07  1.018756e-06  2.350785e-10  9.943255e-06  8.034036e-10  4.700000e+01  0.000000e+00  0.000000e+00  0.000000e+00  0.000000e+00  1.800000e+00  0.000000e+00  1.800000e+00  1.800000e+00  1.800000e+00  1.800000e+00 
 5.000000e+00  9.383212e-01  9.383212e-01  5.131501e-07  1.018756e-06  2.357905e-10  9.946183e-06  7.648030e-10  4.800000e+01  0.000000e+00  0.000000e+00  0.000000e+00  0.000000e+00  1.800000e+00  1.800000e+00  0.000000e+00  0.000000e+00  0.000000e+00  0.000000e+00 
 5.000000e+00  9.494459e-01  9.494459e-01  5.131501e-07  1.018756e-06  2.357965e-10  9.948485e-06  7.640783e-10  4.900000e+01  0.000000e+00  0.000000e+00  0.000000e+00  0.000000e+00  1.800000e+00  1.800000e+00  0.000000e+00  0.000000e+00  0.000000e+00  1.800000e+00 
 5.000000e+00  9.601026e-01  9.601026e-01  5.131501e-07  1.018756e-06  2.357940e-10  9.950070e-06  7.635098e-10  5.000000e+01  0.000000e+00  0.000000e+00  0.000000e+00  0.000000e+00  1.800000e+00  1.800000e+00  0.000000e+00  0.000000e+00  1.800000e+00  0.000000e+00 
 5.000000e+00  9.702915e-01  9.702915e-01  5.131501e-07  1.018756e-06  2.357934e-10  9.951108e-06  7.634281e-10  5.100000e+01  0.000000e+00  0.000000e+00  0.000000e+00  0.000000e+00  1.800000e+00  1.800000e+00  0.000000e+00  0.000000e+00  1.800000e+00  1.800000e+00 
 5.000000e+00  9.809482e-01  9.809482e-01  5.131501e-07  1.018756e-06  2.357941e-10  9.951780e-06  7.614635e-10  5.200000e+01  0.000000e+00  0.000000e+00  0.000000e+00  0.000000e+00  1.800000e+00  1.800000e+00  0.000000e+00  1.800000e+00  0.000000e+00  0.000000e+00 
 5.000000e+00  9.911371e-01  9.911371e-01  5.131501e-07  1.018756e-06  2.357949e-10  9.952084e-06  7.615026e-10  5.300000e+01  0.000000e+00  0.000000e+00  0.000000e+00  0.000000e+00  1.800000e+00  1.800000e+00  0.000000e+00  1.800000e+00  0.000000e+00  1.800000e+00 
 5.000000e+00  1.001326e+00  1.001326e+00  5.131501e-07  1.018756e-06  2.357943e-10  9.952122e-06  7.609768e-10  5.400000e+01  0.000000e+00  0.000000e+00  0.000000e+00  0.000000e+00  1.800000e+00  1.800000e+00  0.000000e+00  1.800000e+00  1.800000e+00  0.000000e+00 
 5.000000e+00  1.011515e+00  1.011515e+00  5.131501e-07  1.018756e-06  2.357948e-10  9.951940e-06  7.606215e-10  5.500000e+01  0.000000e+00  0.000000e+00  0.000000e+00  0.000000e+00  1.800000e+00  1.800000e+00  0.000000e+00  1.800000e+00  1.800000e+00  1.800000e+00 
 5.000000e+00  1.021703e+00  1.021703e+00  5.131501e-07  1.018756e-06  2.357952e-10  9.951578e-06  7.555233e-10  5.600000e+01  0.000000e+00  0.000000e+00  0.000000e+00  0.000000e+00  1.800000e+00  1.800000e+00  1.800000e+00  0.000000e+00  0.000000e+00  0.000000e+00 
 5.000000e+00  1.031892e+00  1.031892e+00  5.131501e-07  1.018756e-06  2.357946e-10  9.951071e-06  7.540809e-10  5.700000e+01  0.000000e+00  0.000000e+00  0.000000e+00  0.000000e+00  1.800000e+00  1.800000e+00  1.800000e+00  0.000000e+00  0.000000e+00  1.800000e+00 
 5.000000e+00  1.041612e+00  1.041612e+00  5.131501e-07  1.018756e-06  2.357943e-10  9.950482e-06  7.535374e-10  5.800000e+01  0.000000e+00  0.000000e+00  0.000000e+00  0.000000e+00  1.800000e+00  1.800000e+00  1.800000e+00  0.000000e+00  1.800000e+00  0.000000e+00 
 5.000000e+00  1.051331e+00  1.051331e+00  5.131501e-07  1.018756e-06  2.357955e-10  9.949810e-06  7.529370e-10  5.900000e+01  0.000000e+00  0.000000e+00  0.000000e+00  0.000000e+00  1.800000e+00  1.800000e+00  1.800000e+00  0.000000e+00  1.800000e+00  1.800000e+00 
 5.000000e+00  1.061051e+00  1.061051e+00  5.131501e-07  1.018756e-06  2.357953e-10  9.949066e-06  7.514626e-10  6.000000e+01  0.000000e+00  0.000000e+00  0.000000e+00  0.000000e+00  1.800000e+00  1.800000e+00  1.800000e+00  1.800000e+00  0.000000e+00  0.000000e+00 
 5.000000e+00  1.070771e+00  1.070771e+00  5.131501e-07  1.018756e-06  2.357975e-10  9.948270e-06  7.509119e-10  6.100000e+01  0.000000e+00  0.000000e+00  0.000000e+00  0.000000e+00  1.800000e+00  1.800000e+00  1.800000e+00  1.800000e+00  0.000000e+00  1.800000e+00 
 5.000000e+00  1.080490e+00  1.080490e+00  5.131501e-07  1.018756e-06  2.357974e-10  9.947433e-06  7.506455e-10  6.200000e+01  0.000000e+00  0.000000e+00  0.000000e+00  0.000000e+00  1.800000e+00  1.800000e+00  1.800000e+00  1.800000e+00  1.800000e+00  0.000000e+00 
 5.000000e+00  1.090210e+00  1.090210e+00  5.131501e-07  1.018756e-06  2.357960e-10  9.946565e-06  7.504074e-10  6.300000e+01  0.000000e+00  0.000000e+00  0.000000e+00  0.000000e+00  1.800000e+00  1.800000e+00  1.800000e+00  1.800000e+00  1.800000e+00  1.800000e+00 
 5.000000e+00  1.099479e+00  1.099479e+00  5.131501e-07  1.018756e-06  2.411330e-10  9.945710e-06  9.146618e-10  6.400000e+01  0.000000e+00  0.000000e+00  0.000000e+00  1.800000e+00  0.000000e+00  0.000000e+00  0.000000e+00  0.000000e+00  0.000000e+00  0.000000e+00 
 5.000000e+00  1.104691e+00  1.104691e+00  5.131501e-07  1.018756e-06  2.411356e-10  9.945349e-06  9.141716e-10  6.500000e+01  0.000000e+00  0.000000e+00  0.000000e+00  1.800000e+00  0.000000e+00  0.000000e+00  0.000000e+00  0.000000e+00  0.000000e+00  1.800000e+00 
 5.000000e+00  1.110378e+00  1.110378e+00  5.131501e-07  1.018756e-06  2.411356e-10  9.944980e-06  9.141680e-10  6.600000e+01  0.000000e+00  0.000000e+00  0.000000e+00  1.800000e+00  0.000000e+00  0.000000e+00  0.000000e+00  0.000000e+00  1.800000e+00  0.000000e+00 
 5.000000e+00  1.116680e+00  1.116680e+00  5.131501e-07  1.018756e-06  2.411330e-10  9.944079e-06  9.139158e-10  6.700000e+01  0.000000e+00  0.000000e+00  0.000000e+00  1.800000e+00  0.000000e+00  0.000000e+00  0.000000e+00  0.000000e+00  1.800000e+00  1.800000e+00 
 5.000000e+00  1.123340e+00  1.123340e+00  5.131501e-07  1.018756e-06  2.411358e-10  9.944095e-06  9.141325e-10  6.800000e+01  0.000000e+00  0.000000e+00  0.000000e+00  1.800000e+00  0.000000e+00  0.000000e+00  0.000000e+00  1.800000e+00  0.000000e+00  0.000000e+00 
 5.000000e+00  1.130886e+00  1.130886e+00  5.131501e-07  1.018756e-06  2.411339e-10  9.942629e-06  9.138376e-10  6.900000e+01  0.000000e+00  0.000000e+00  0.000000e+00  1.800000e+00  0.000000e+00  0.000000e+00  0.000000e+00  1.800000e+00  0.000000e+00  1.800000e+00 
 5.000000e+00  1.138941e+00  1.138941e+00  5.131501e-07  1.018756e-06  2.411340e-10  9.941295e-06  9.138376e-10  7.000000e+01  0.000000e+00  0.000000e+00  0.000000e+00  1.800000e+00  0.000000e+00  0.000000e+00  0.000000e+00  1.800000e+00  1.800000e+00  0.000000e+00 
 5.000000e+00  1.147616e+00  1.147616e+00  5.131501e-07  1.018756e-06  2.411359e-10  9.939296e-06  9.135321e-10  7.100000e+01  0.000000e+00  0.000000e+00  0.000000e+00  1.800000e+00  0.000000e+00  0.000000e+00  0.000000e+00  1.800000e+00  1.800000e+00  1.800000e+00 
 5.000000e+00  1.155081e+00  1.155081e+00  5.131501e-07  1.018756e-06  2.411336e-10  9.941515e-06  9.122993e-10  7.200000e+01  0.000000e+00  0.000000e+00  0.000000e+00  1.800000e+00  0.000000e+00  0.000000e+00  1.800000e+00  0.000000e+00  0.000000e+00  0.000000e+00 
