 v-sweep       voutval       vloadval      ir1           ir2           ivdd          ivdda         ivddh         ndata         vd9           vd8           vd7           vd6           vd5           vd4           vd3           vd2           vd1           vd0          
 0.000000e+00  3.155974e-04  3.155974e-04  5.131501e-07  1.018756e-06  2.065428e-10  9.096417e-06  9.464759e-10  0.000000e+00  0.000000e+00  0.000000e+00  0.000000e+00  0.000000e+00  0.000000e+00  0.000000e+00  0.000000e+00  0.000000e+00  0.000000e+00  0.000000e+00 
 0.000000e+00  5.139369e-02  5.139369e-02  5.131501e-07  1.018756e-06  2.065424e-10  9.195868e-06  9.453320e-10  1.000000e+00  0.000000e+00  0.000000e+00  0.000000e+00  0.000000e+00  0.000000e+00  0.000000e+00  0.000000e+00  0.000000e+00  0.000000e+00  1.800000e+00 
 0.000000e+00  9.731721e-02  9.731721e-02  5.131501e-07  1.018756e-06  2.065406e-10  9.220507e-06  9.442235e-10  2.000000e+00  0.000000e+00  0.000000e+00  0.000000e+00  0.000000e+00  0.000000e+00  0.000000e+00  0.000000e+00  0.000000e+00  1.800000e+00  0.000000e+00 
 0.000000e+00  1.385457e-01  1.385457e-01  5.131501e-07  1.018756e-06  2.065419e-10  9.227930e-06  9.438931e-10  3.000000e+00  0.000000e+00  0.000000e+00  0.000000e+00  0.000000e+00  0.000000e+00  0.000000e+00  0.000000e+00  0.000000e+00  1.800000e+00  1.800000e+00 
 0.000000e+00  1.764941e-01  1.764941e-01  5.131501e-07  1.018756e-06  2.065417e-10  9.231230e-06  9.420315e-10  4.000000e+00  0.000000e+00  0.000000e+00  0.000000e+00  0.000000e+00  0.000000e+00  0.000000e+00  0.000000e+00  1.800000e+00  0.000000e+00  0.000000e+00 
 0.000000e+00  2.120963e-01  2.120963e-01  5.131501e-07  1.018756e-06  2.065411e-10  9.233148e-06  9.409479e-10  5.000000e+00  0.000000e+00  0.000000e+00  0.000000e+00  0.000000e+00  0.000000e+00  0.000000e+00  0.000000e+00  1.800000e+00  0.000000e+00  1.800000e+00 
 0.000000e+00  2.454008e-01  2.454008e-01  5.131501e-07  1.018756e-06  2.065420e-10  9.234465e-06  9.406175e-10  6.000000e+00  0.000000e+00  0.000000e+00  0.000000e+00  0.000000e+00  0.000000e+00  0.000000e+00  0.000000e+00  1.800000e+00  1.800000e+00  0.000000e+00 
 0.000000e+00  2.749800e-01  2.749800e-01  5.131501e-07  1.018756e-06  2.065391e-10  9.235474e-06  9.400242e-10  7.000000e+00  0.000000e+00  0.000000e+00  0.000000e+00  0.000000e+00  0.000000e+00  0.000000e+00  0.000000e+00  1.800000e+00  1.800000e+00  1.800000e+00 
 0.000000e+00  3.031976e-01  3.031976e-01  5.131501e-07  1.018756e-06  2.065411e-10  9.236422e-06  9.373835e-10  8.000000e+00  0.000000e+00  0.000000e+00  0.000000e+00  0.000000e+00  0.000000e+00  0.000000e+00  1.800000e+00  0.000000e+00  0.000000e+00  0.000000e+00 
 0.000000e+00  3.300091e-01  3.300091e-01  5.131501e-07  1.018756e-06  2.065409e-10  9.237417e-06  9.369785e-10  9.000000e+00  0.000000e+00  0.000000e+00  0.000000e+00  0.000000e+00  0.000000e+00  0.000000e+00  1.800000e+00  0.000000e+00  0.000000e+00  1.800000e+00 
 0.000000e+00  3.554169e-01  3.554169e-01  5.131501e-07  1.018756e-06  2.065403e-10  9.238569e-06  9.366908e-10  1.000000e+01  0.000000e+00  0.000000e+00  0.000000e+00  0.000000e+00  0.000000e+00  0.000000e+00  1.800000e+00  0.000000e+00  1.800000e+00  0.000000e+00 
 0.000000e+00  3.798881e-01  3.798881e-01  5.131501e-07  1.018756e-06  2.065408e-10  9.240012e-06  9.363852e-10  1.100000e+01  0.000000e+00  0.000000e+00  0.000000e+00  0.000000e+00  0.000000e+00  0.000000e+00  1.800000e+00  0.000000e+00  1.800000e+00  1.800000e+00 
 0.000000e+00  4.034226e-01  4.034226e-01  5.131501e-07  1.018756e-06  2.065412e-10  9.241883e-06  9.356001e-10  1.200000e+01  0.000000e+00  0.000000e+00  0.000000e+00  0.000000e+00  0.000000e+00  0.000000e+00  1.800000e+00  1.800000e+00  0.000000e+00  0.000000e+00 
 0.000000e+00  4.260205e-01  4.260205e-01  5.131501e-07  1.018756e-06  2.065405e-10  9.244351e-06  9.341044e-10  1.300000e+01  0.000000e+00  0.000000e+00  0.000000e+00  0.000000e+00  0.000000e+00  0.000000e+00  1.800000e+00  1.800000e+00  0.000000e+00  1.800000e+00 
 0.000000e+00  4.481486e-01  4.481486e-01  5.131501e-07  1.018756e-06  2.065373e-10  9.247686e-06  9.322818e-10  1.400000e+01  0.000000e+00  0.000000e+00  0.000000e+00  0.000000e+00  0.000000e+00  0.000000e+00  1.800000e+00  1.800000e+00  1.800000e+00  0.000000e+00 
 0.000000e+00  4.693429e-01  4.693429e-01  5.131501e-07  1.018756e-06  2.065394e-10  9.252072e-06  9.317241e-10  1.500000e+01  0.000000e+00  0.000000e+00  0.000000e+00  0.000000e+00  0.000000e+00  0.000000e+00  1.800000e+00  1.800000e+00  1.800000e+00  1.800000e+00 
 0.000000e+00  4.900655e-01  4.900655e-01  5.131501e-07  1.018756e-06  2.072600e-10  9.257897e-06  8.976414e-10  1.600000e+01  0.000000e+00  0.000000e+00  0.000000e+00  0.000000e+00  0.000000e+00  1.800000e+00  0.000000e+00  0.000000e+00  0.000000e+00  0.000000e+00 
 0.000000e+00  5.098533e-01  5.098533e-01  5.131501e-07  1.018756e-06  2.072597e-10  9.265343e-06  8.975561e-10  1.700000e+01  0.000000e+00  0.000000e+00  0.000000e+00  0.000000e+00  0.000000e+00  1.800000e+00  0.000000e+00  0.000000e+00  0.000000e+00  1.800000e+00 
 0.000000e+00  5.296411e-01  5.296411e-01  5.131501e-07  1.018756e-06  2.072592e-10  9.275165e-06  8.974318e-10  1.800000e+01  0.000000e+00  0.000000e+00  0.000000e+00  0.000000e+00  0.000000e+00  1.800000e+00  0.000000e+00  0.000000e+00  1.800000e+00  0.000000e+00 
 0.000000e+00  5.484923e-01  5.484923e-01  5.131501e-07  1.018756e-06  2.072593e-10  9.287288e-06  8.973003e-10  1.900000e+01  0.000000e+00  0.000000e+00  0.000000e+00  0.000000e+00  0.000000e+00  1.800000e+00  0.000000e+00  0.000000e+00  1.800000e+00  1.800000e+00 
 0.000000e+00  5.673436e-01  5.673436e-01  5.131501e-07  1.018756e-06  2.072586e-10  9.302702e-06  8.971369e-10  2.000000e+01  0.000000e+00  0.000000e+00  0.000000e+00  0.000000e+00  0.000000e+00  1.800000e+00  0.000000e+00  1.800000e+00  0.000000e+00  0.000000e+00 
 0.000000e+00  5.852583e-01  5.852583e-01  5.131501e-07  1.018756e-06  2.072591e-10  9.320953e-06  8.964441e-10  2.100000e+01  0.000000e+00  0.000000e+00  0.000000e+00  0.000000e+00  0.000000e+00  1.800000e+00  0.000000e+00  1.800000e+00  0.000000e+00  1.800000e+00 
 0.000000e+00  6.031732e-01  6.031732e-01  5.131501e-07  1.018756e-06  2.072564e-10  9.343209e-06  8.957336e-10  2.200000e+01  0.000000e+00  0.000000e+00  0.000000e+00  0.000000e+00  0.000000e+00  1.800000e+00  0.000000e+00  1.800000e+00  1.800000e+00  0.000000e+00 
 0.000000e+00  6.189813e-01  6.189813e-01  5.131501e-07  1.018756e-06  2.072575e-10  9.366516e-06  8.956803e-10  2.300000e+01  0.000000e+00  0.000000e+00  0.000000e+00  0.000000e+00  0.000000e+00  1.800000e+00  0.000000e+00  1.800000e+00  1.800000e+00  1.800000e+00 
 0.000000e+00  6.347891e-01  6.347891e-01  5.131501e-07  1.018756e-06  2.072568e-10  9.393466e-06  8.935392e-10  2.400000e+01  0.000000e+00  0.000000e+00  0.000000e+00  0.000000e+00  0.000000e+00  1.800000e+00  1.800000e+00  0.000000e+00  0.000000e+00  0.000000e+00 
 0.000000e+00  6.496604e-01  6.496604e-01  5.131501e-07  1.018756e-06  2.072580e-10  9.422214e-06  8.927931e-10  2.500000e+01  0.000000e+00  0.000000e+00  0.000000e+00  0.000000e+00  0.000000e+00  1.800000e+00  1.800000e+00  0.000000e+00  0.000000e+00  1.800000e+00 
 0.000000e+00  6.645319e-01  6.645319e-01  5.131501e-07  1.018756e-06  2.072579e-10  9.454184e-06  8.927754e-10  2.600000e+01  0.000000e+00  0.000000e+00  0.000000e+00  0.000000e+00  0.000000e+00  1.800000e+00  1.800000e+00  0.000000e+00  1.800000e+00  0.000000e+00 
 0.000000e+00  6.789357e-01  6.789357e-01  5.131501e-07  1.018756e-06  2.072571e-10  9.488020e-06  8.927434e-10  2.700000e+01  0.000000e+00  0.000000e+00  0.000000e+00  0.000000e+00  0.000000e+00  1.800000e+00  1.800000e+00  0.000000e+00  1.800000e+00  1.800000e+00 
 0.000000e+00  6.933396e-01  6.933396e-01  5.131501e-07  1.018756e-06  2.072568e-10  9.524311e-06  8.901926e-10  2.800000e+01  0.000000e+00  0.000000e+00  0.000000e+00  0.000000e+00  0.000000e+00  1.800000e+00  1.800000e+00  1.800000e+00  0.000000e+00  0.000000e+00 
 0.000000e+00  7.072758e-01  7.072758e-01  5.131501e-07  1.018756e-06  2.072580e-10  9.561273e-06  8.901286e-10  2.900000e+01  0.000000e+00  0.000000e+00  0.000000e+00  0.000000e+00  0.000000e+00  1.800000e+00  1.800000e+00  1.800000e+00  0.000000e+00  1.800000e+00 
 0.000000e+00  7.212121e-01  7.212121e-01  5.131501e-07  1.018756e-06  2.072566e-10  9.599452e-06  8.900327e-10  3.000000e+01  0.000000e+00  0.000000e+00  0.000000e+00  0.000000e+00  0.000000e+00  1.800000e+00  1.800000e+00  1.800000e+00  1.800000e+00  0.000000e+00 
 0.000000e+00  7.346805e-01  7.346805e-01  5.131501e-07  1.018756e-06  2.072574e-10  9.636852e-06  8.897804e-10  3.100000e+01  0.000000e+00  0.000000e+00  0.000000e+00  0.000000e+00  0.000000e+00  1.800000e+00  1.800000e+00  1.800000e+00  1.800000e+00  1.800000e+00 
 0.000000e+00  7.481465e-01  7.481465e-01  5.131501e-07  1.018756e-06  2.072603e-10  9.674030e-06  8.574384e-10  3.200000e+01  0.000000e+00  0.000000e+00  0.000000e+00  0.000000e+00  1.800000e+00  0.000000e+00  0.000000e+00  0.000000e+00  0.000000e+00  0.000000e+00 
 0.000000e+00  7.611455e-01  7.611455e-01  5.131501e-07  1.018756e-06  2.072601e-10  9.709048e-06  8.572181e-10  3.300000e+01  0.000000e+00  0.000000e+00  0.000000e+00  0.000000e+00  1.800000e+00  0.000000e+00  0.000000e+00  0.000000e+00  0.000000e+00  1.800000e+00 
 0.000000e+00  7.741445e-01  7.741445e-01  5.131501e-07  1.018756e-06  2.072587e-10  9.742595e-06  8.571684e-10  3.400000e+01  0.000000e+00  0.000000e+00  0.000000e+00  0.000000e+00  1.800000e+00  0.000000e+00  0.000000e+00  0.000000e+00  1.800000e+00  0.000000e+00 
 0.000000e+00  7.871434e-01  7.871434e-01  5.131501e-07  1.018756e-06  2.072590e-10  9.774117e-06  8.568842e-10  3.500000e+01  0.000000e+00  0.000000e+00  0.000000e+00  0.000000e+00  1.800000e+00  0.000000e+00  0.000000e+00  0.000000e+00  1.800000e+00  1.800000e+00 
 0.000000e+00  7.996741e-01  7.996741e-01  5.131501e-07  1.018756e-06  2.072594e-10  9.802166e-06  8.567953e-10  3.600000e+01  0.000000e+00  0.000000e+00  0.000000e+00  0.000000e+00  1.800000e+00  0.000000e+00  0.000000e+00  1.800000e+00  0.000000e+00  0.000000e+00 
 0.000000e+00  8.117369e-01  8.117369e-01  5.131501e-07  1.018756e-06  2.072584e-10  9.826720e-06  8.560599e-10  3.700000e+01  0.000000e+00  0.000000e+00  0.000000e+00  0.000000e+00  1.800000e+00  0.000000e+00  0.000000e+00  1.800000e+00  0.000000e+00  1.800000e+00 
 0.000000e+00  8.242675e-01  8.242675e-01  5.131501e-07  1.018756e-06  2.072582e-10  9.849511e-06  8.558681e-10  3.800000e+01  0.000000e+00  0.000000e+00  0.000000e+00  0.000000e+00  1.800000e+00  0.000000e+00  0.000000e+00  1.800000e+00  1.800000e+00  0.000000e+00 
 0.000000e+00  8.363301e-01  8.363301e-01  5.131501e-07  1.018756e-06  2.072601e-10  9.868772e-06  8.558255e-10  3.900000e+01  0.000000e+00  0.000000e+00  0.000000e+00  0.000000e+00  1.800000e+00  0.000000e+00  0.000000e+00  1.800000e+00  1.800000e+00  1.800000e+00 
 0.000000e+00  8.479230e-01  8.479230e-01  5.131501e-07  1.018756e-06  2.072587e-10  9.884852e-06  8.503856e-10  4.000000e+01  0.000000e+00  0.000000e+00  0.000000e+00  0.000000e+00  1.800000e+00  0.000000e+00  1.800000e+00  0.000000e+00  0.000000e+00  0.000000e+00 
 0.000000e+00  8.599853e-01  8.599853e-01  5.131501e-07  1.018756e-06  2.072604e-10  9.899160e-06  8.498278e-10  4.100000e+01  0.000000e+00  0.000000e+00  0.000000e+00  0.000000e+00  1.800000e+00  0.000000e+00  1.800000e+00  0.000000e+00  0.000000e+00  1.800000e+00 
 0.000000e+00  8.715783e-01  8.715783e-01  5.131501e-07  1.018756e-06  2.072578e-10  9.910747e-06  8.493162e-10  4.200000e+01  0.000000e+00  0.000000e+00  0.000000e+00  0.000000e+00  1.800000e+00  0.000000e+00  1.800000e+00  0.000000e+00  1.800000e+00  0.000000e+00 
 0.000000e+00  8.827034e-01  8.827034e-01  5.131501e-07  1.018756e-06  2.072595e-10  9.920051e-06  8.490995e-10  4.300000e+01  0.000000e+00  0.000000e+00  0.000000e+00  0.000000e+00  1.800000e+00  0.000000e+00  1.800000e+00  0.000000e+00  1.800000e+00  1.800000e+00 
 0.000000e+00  8.942962e-01  8.942962e-01  5.131501e-07  1.018756e-06  2.072601e-10  9.928050e-06  8.481225e-10  4.400000e+01  0.000000e+00  0.000000e+00  0.000000e+00  0.000000e+00  1.800000e+00  0.000000e+00  1.800000e+00  1.800000e+00  0.000000e+00  0.000000e+00 
 0.000000e+00  9.054211e-01  9.054211e-01  5.131501e-07  1.018756e-06  2.072602e-10  9.934289e-06  8.475860e-10  4.500000e+01  0.000000e+00  0.000000e+00  0.000000e+00  0.000000e+00  1.800000e+00  0.000000e+00  1.800000e+00  1.800000e+00  0.000000e+00  1.800000e+00 
 0.000000e+00  9.165460e-01  9.165460e-01  5.131501e-07  1.018756e-06  2.072564e-10  9.939303e-06  8.472521e-10  4.600000e+01  0.000000e+00  0.000000e+00  0.000000e+00  0.000000e+00  1.800000e+00  0.000000e+00  1.800000e+00  1.800000e+00  1.800000e+00  0.000000e+00 
 0.000000e+00  9.276709e-01  9.276709e-01  5.131501e-07  1.018756e-06  2.072580e-10  9.943256e-06  8.467085e-10  4.700000e+01  0.000000e+00  0.000000e+00  0.000000e+00  0.000000e+00  1.800000e+00  0.000000e+00  1.800000e+00  1.800000e+00  1.800000e+00  1.800000e+00 
 0.000000e+00  9.383255e-01  9.383255e-01  5.131501e-07  1.018756e-06  2.079788e-10  9.946186e-06  8.095342e-10  4.800000e+01  0.000000e+00  0.000000e+00  0.000000e+00  0.000000e+00  1.800000e+00  1.800000e+00  0.000000e+00  0.000000e+00  0.000000e+00  0.000000e+00 
 0.000000e+00  9.494502e-01  9.494502e-01  5.131501e-07  1.018756e-06  2.079788e-10  9.948486e-06  8.088911e-10  4.900000e+01  0.000000e+00  0.000000e+00  0.000000e+00  0.000000e+00  1.800000e+00  1.800000e+00  0.000000e+00  0.000000e+00  0.000000e+00  1.800000e+00 
 0.000000e+00  9.601070e-01  9.601070e-01  5.131501e-07  1.018756e-06  2.079759e-10  9.950069e-06  8.085607e-10  5.000000e+01  0.000000e+00  0.000000e+00  0.000000e+00  0.000000e+00  1.800000e+00  1.800000e+00  0.000000e+00  0.000000e+00  1.800000e+00  0.000000e+00 
 0.000000e+00  9.702960e-01  9.702960e-01  5.131501e-07  1.018756e-06  2.079772e-10  9.951108e-06  8.082304e-10  5.100000e+01  0.000000e+00  0.000000e+00  0.000000e+00  0.000000e+00  1.800000e+00  1.800000e+00  0.000000e+00  0.000000e+00  1.800000e+00  1.800000e+00 
 0.000000e+00  9.809527e-01  9.809527e-01  5.131501e-07  1.018756e-06  2.079756e-10  9.951778e-06  8.064469e-10  5.200000e+01  0.000000e+00  0.000000e+00  0.000000e+00  0.000000e+00  1.800000e+00  1.800000e+00  0.000000e+00  1.800000e+00  0.000000e+00  0.000000e+00 
 0.000000e+00  9.911416e-01  9.911416e-01  5.131501e-07  1.018756e-06  2.079782e-10  9.952085e-06  8.062657e-10  5.300000e+01  0.000000e+00  0.000000e+00  0.000000e+00  0.000000e+00  1.800000e+00  1.800000e+00  0.000000e+00  1.800000e+00  0.000000e+00  1.800000e+00 
 0.000000e+00  1.001331e+00  1.001331e+00  5.131501e-07  1.018756e-06  2.079751e-10  9.952123e-06  8.061876e-10  5.400000e+01  0.000000e+00  0.000000e+00  0.000000e+00  0.000000e+00  1.800000e+00  1.800000e+00  0.000000e+00  1.800000e+00  1.800000e+00  0.000000e+00 
 0.000000e+00  1.011519e+00  1.011519e+00  5.131501e-07  1.018756e-06  2.079775e-10  9.951939e-06  8.060277e-10  5.500000e+01  0.000000e+00  0.000000e+00  0.000000e+00  0.000000e+00  1.800000e+00  1.800000e+00  0.000000e+00  1.800000e+00  1.800000e+00  1.800000e+00 
 0.000000e+00  1.021708e+00  1.021708e+00  5.131501e-07  1.018756e-06  2.079757e-10  9.951576e-06  8.009951e-10  5.600000e+01  0.000000e+00  0.000000e+00  0.000000e+00  0.000000e+00  1.800000e+00  1.800000e+00  1.800000e+00  0.000000e+00  0.000000e+00  0.000000e+00 
 0.000000e+00  1.031897e+00  1.031897e+00  5.131501e-07  1.018756e-06  2.079764e-10  9.951069e-06  7.996486e-10  5.700000e+01  0.000000e+00  0.000000e+00  0.000000e+00  0.000000e+00  1.800000e+00  1.800000e+00  1.800000e+00  0.000000e+00  0.000000e+00  1.800000e+00 
 0.000000e+00  1.041617e+00  1.041617e+00  5.131501e-07  1.018756e-06  2.079751e-10  9.950480e-06  7.992258e-10  5.800000e+01  0.000000e+00  0.000000e+00  0.000000e+00  0.000000e+00  1.800000e+00  1.800000e+00  1.800000e+00  0.000000e+00  1.800000e+00  0.000000e+00 
 0.000000e+00  1.051336e+00  1.051336e+00  5.131501e-07  1.018756e-06  2.079763e-10  9.949808e-06  7.987031e-10  5.900000e+01  0.000000e+00  0.000000e+00  0.000000e+00  0.000000e+00  1.800000e+00  1.800000e+00  1.800000e+00  0.000000e+00  1.800000e+00  1.800000e+00 
 0.000000e+00  1.061056e+00  1.061056e+00  5.131501e-07  1.018756e-06  2.079751e-10  9.949064e-06  7.970445e-10  6.000000e+01  0.000000e+00  0.000000e+00  0.000000e+00  0.000000e+00  1.800000e+00  1.800000e+00  1.800000e+00  1.800000e+00  0.000000e+00  0.000000e+00 
 0.000000e+00  1.070776e+00  1.070776e+00  5.131501e-07  1.018756e-06  2.079776e-10  9.948272e-06  7.961735e-10  6.100000e+01  0.000000e+00  0.000000e+00  0.000000e+00  0.000000e+00  1.800000e+00  1.800000e+00  1.800000e+00  1.800000e+00  0.000000e+00  1.800000e+00 
 0.000000e+00  1.080495e+00  1.080495e+00  5.131501e-07  1.018756e-06  2.079757e-10  9.947432e-06  7.960888e-10  6.200000e+01  0.000000e+00  0.000000e+00  0.000000e+00  0.000000e+00  1.800000e+00  1.800000e+00  1.800000e+00  1.800000e+00  1.800000e+00  0.000000e+00 
 0.000000e+00  1.090215e+00  1.090215e+00  5.131501e-07  1.018756e-06  2.079738e-10  9.946563e-06  7.958716e-10  6.300000e+01  0.000000e+00  0.000000e+00  0.000000e+00  0.000000e+00  1.800000e+00  1.800000e+00  1.800000e+00  1.800000e+00  1.800000e+00  1.800000e+00 
 0.000000e+00  1.489095e+00  1.489095e+00  5.131501e-07  1.018756e-06  2.055856e-10  9.909854e-06  8.866084e-10  6.400000e+01  0.000000e+00  0.000000e+00  0.000000e+00  1.800000e+00  0.000000e+00  0.000000e+00  0.000000e+00  0.000000e+00  0.000000e+00  0.000000e+00 
 0.000000e+00  1.493342e+00  1.493342e+00  5.131501e-07  1.018756e-06  2.055856e-10  9.909389e-06  8.864876e-10  6.500000e+01  0.000000e+00  0.000000e+00  0.000000e+00  1.800000e+00  0.000000e+00  0.000000e+00  0.000000e+00  0.000000e+00  0.000000e+00  1.800000e+00 
 0.000000e+00  1.497791e+00  1.497791e+00  5.131501e-07  1.018756e-06  2.055852e-10  9.909045e-06  8.864023e-10  6.600000e+01  0.000000e+00  0.000000e+00  0.000000e+00  1.800000e+00  0.000000e+00  0.000000e+00  0.000000e+00  0.000000e+00  1.800000e+00  0.000000e+00 
 0.000000e+00  1.502575e+00  1.502575e+00  5.131501e-07  1.018756e-06  2.055834e-10  9.908309e-06  8.862496e-10  6.700000e+01  0.000000e+00  0.000000e+00  0.000000e+00  1.800000e+00  0.000000e+00  0.000000e+00  0.000000e+00  0.000000e+00  1.800000e+00  1.800000e+00 
 0.000000e+00  1.507317e+00  1.507317e+00  5.131501e-07  1.018756e-06  2.055829e-10  9.908541e-06  8.862176e-10  6.800000e+01  0.000000e+00  0.000000e+00  0.000000e+00  1.800000e+00  0.000000e+00  0.000000e+00  0.000000e+00  1.800000e+00  0.000000e+00  0.000000e+00 
 0.000000e+00  1.512579e+00  1.512579e+00  5.131501e-07  1.018756e-06  2.055846e-10  9.907615e-06  8.858197e-10  6.900000e+01  0.000000e+00  0.000000e+00  0.000000e+00  1.800000e+00  0.000000e+00  0.000000e+00  0.000000e+00  1.800000e+00  0.000000e+00  1.800000e+00 
 0.000000e+00  1.517933e+00  1.517933e+00  5.131501e-07  1.018756e-06  2.055850e-10  9.906973e-06  8.854431e-10  7.000000e+01  0.000000e+00  0.000000e+00  0.000000e+00  1.800000e+00  0.000000e+00  0.000000e+00  0.000000e+00  1.800000e+00  1.800000e+00  0.000000e+00 
 0.000000e+00  1.523541e+00  1.523541e+00  5.131501e-07  1.018756e-06  2.055836e-10  9.905906e-06  8.853152e-10  7.100000e+01  0.000000e+00  0.000000e+00  0.000000e+00  1.800000e+00  0.000000e+00  0.000000e+00  0.000000e+00  1.800000e+00  1.800000e+00  1.800000e+00 
 0.000000e+00  1.528047e+00  1.528047e+00  5.131501e-07  1.018756e-06  2.055833e-10  9.908069e-06  8.837971e-10  7.200000e+01  0.000000e+00  0.000000e+00  0.000000e+00  1.800000e+00  0.000000e+00  0.000000e+00  1.800000e+00  0.000000e+00  0.000000e+00  0.000000e+00 
